!Created: 07-29-2019 at 10:55:36
!Mini-Circuits
!S2P DATA File Format
!Type: RF CHOKE
!Port 1: RF; Port 2: RF AND DC IN
!TEST CONDITIONS: Z:50 OHM SYSTEM, INPUT POWER = -10dBm, TEMP:25°C
!REMARKS: TESTED WITH 100 mA CURRENT; FULL 2 PORT CALIBRATION OF THE SYSTEM; FIXTURE THRU LINE LOSS NORMALIZED VIA DATA/MEMORY FUNCTION; FIXTURE RETURN LOSS NORMALIZED VIA DATA-MEMORY FUNCTION.
!FIXTURE: 90-2-20-165
!PRESSING ARM: B85-TA-076
!MODEL: TCCH-80+
!S/N: U2_100mA
# MHZ S DB R 50
!Frequency          S11 dB    S11 DEG     S21 dB    S21 DEG     S12 dB    S12 DEG     S22 dB    S22 DEG
  10.0000     -1.197023E+001  1.216950E+002 -9.871098E-001  1.388552E+001 -9.898219E-001  1.387597E+001 -1.187777E+001  1.199635E+002
  20.0000     -1.642646E+001  1.237260E+002 -7.263740E-001  7.699048E+000 -7.253858E-001  7.707878E+000 -1.637691E+001  1.230105E+002
  30.0000     -1.865800E+001  1.270485E+002 -6.391404E-001  5.544942E+000 -6.389836E-001  5.537031E+000 -1.862973E+001  1.268651E+002
  40.0000     -2.007965E+001  1.290830E+002 -5.878733E-001  4.425189E+000 -5.878330E-001  4.421283E+000 -2.004212E+001  1.292198E+002
  50.0000     -2.110572E+001  1.313695E+002 -5.543610E-001  3.685625E+000 -5.585266E-001  3.692687E+000 -2.110663E+001  1.310721E+002
  60.0000     -2.197193E+001  1.316698E+002 -5.217279E-001  3.268233E+000 -5.214115E-001  3.270672E+000 -2.189781E+001  1.319404E+002
  70.0000     -2.260782E+001  1.325055E+002 -4.984257E-001  2.907204E+000 -4.980731E-001  2.908784E+000 -2.257528E+001  1.330002E+002
  80.0000     -2.316121E+001  1.329395E+002 -4.797718E-001  2.613841E+000 -4.787902E-001  2.613631E+000 -2.312732E+001  1.337613E+002
  90.0000     -2.368707E+001  1.334909E+002 -4.644619E-001  2.368870E+000 -4.636661E-001  2.366164E+000 -2.363805E+001  1.344138E+002
 100.0000     -2.412982E+001  1.340572E+002 -4.513956E-001  2.156346E+000 -4.506507E-001  2.159126E+000 -2.409625E+001  1.350809E+002
 120.0000     -2.483865E+001  1.350821E+002 -4.320633E-001  1.815213E+000 -4.317285E-001  1.815994E+000 -2.482811E+001  1.366273E+002
 140.0000     -2.540804E+001  1.362162E+002 -4.199852E-001  1.545657E+000 -4.192086E-001  1.544692E+000 -2.537802E+001  1.379512E+002
 160.0000     -2.579584E+001  1.372057E+002 -4.116594E-001  1.330096E+000 -4.107325E-001  1.327931E+000 -2.579066E+001  1.392287E+002
 180.0000     -2.614120E+001  1.378770E+002 -4.068960E-001  1.151748E+000 -4.058164E-001  1.152555E+000 -2.608547E+001  1.400720E+002
 200.0000     -2.636221E+001  1.382112E+002 -4.025084E-001  1.017677E+000 -4.014557E-001  1.005136E+000 -2.632567E+001  1.406517E+002
 220.0000     -2.652552E+001  1.381248E+002 -4.011328E-001  8.917832E-001 -4.000664E-001  8.917090E-001 -2.649554E+001  1.407288E+002
 240.0000     -2.659877E+001  1.377445E+002 -4.002942E-001  7.895626E-001 -3.991267E-001  7.917552E-001 -2.666130E+001  1.404795E+002
 260.0000     -2.668314E+001  1.370242E+002 -3.980095E-001  7.052304E-001 -3.981206E-001  7.012153E-001 -2.677803E+001  1.400887E+002
 280.0000     -2.673101E+001  1.363364E+002 -3.979207E-001  6.264525E-001 -3.974044E-001  6.269474E-001 -2.687709E+001  1.395850E+002
 300.0000     -2.678632E+001  1.354421E+002 -3.972608E-001  5.672492E-001 -3.953114E-001  5.600670E-001 -2.694049E+001  1.391881E+002
 320.0000     -2.681687E+001  1.345996E+002 -3.960743E-001  5.026999E-001 -3.953006E-001  5.034540E-001 -2.700548E+001  1.385195E+002
 340.0000     -2.685436E+001  1.333967E+002 -3.949823E-001  4.458336E-001 -3.945360E-001  4.493849E-001 -2.707837E+001  1.377130E+002
 360.0000     -2.686748E+001  1.321113E+002 -3.941532E-001  4.040602E-001 -3.931894E-001  3.989407E-001 -2.714891E+001  1.366508E+002
 380.0000     -2.690475E+001  1.305927E+002 -3.931347E-001  3.538077E-001 -3.922371E-001  3.567749E-001 -2.721184E+001  1.355638E+002
 400.0000     -2.694825E+001  1.292344E+002 -3.920308E-001  3.106825E-001 -3.909301E-001  3.101615E-001 -2.725194E+001  1.344484E+002
 420.0000     -2.700853E+001  1.277376E+002 -3.910892E-001  2.663217E-001 -3.904630E-001  2.719611E-001 -2.731188E+001  1.334333E+002
 440.0000     -2.705616E+001  1.264356E+002 -3.909368E-001  2.339353E-001 -3.894779E-001  2.357840E-001 -2.737314E+001  1.325653E+002
 460.0000     -2.707413E+001  1.250255E+002 -3.887988E-001  1.919953E-001 -3.877784E-001  1.959789E-001 -2.744136E+001  1.314052E+002
 480.0000     -2.708816E+001  1.237198E+002 -3.882957E-001  1.532067E-001 -3.868918E-001  1.562465E-001 -2.749257E+001  1.301980E+002
 500.0000     -2.710773E+001  1.222053E+002 -3.869494E-001  1.133018E-001 -3.860810E-001  1.206856E-001 -2.750367E+001  1.288635E+002
 520.0000     -2.716704E+001  1.207933E+002 -3.864807E-001  7.879402E-002 -3.853037E-001  8.550487E-002 -2.749938E+001  1.276800E+002
 540.0000     -2.717809E+001  1.194615E+002 -3.866147E-001  4.811530E-002 -3.846278E-001  5.235402E-002 -2.748533E+001  1.266324E+002
 560.0000     -2.717571E+001  1.179680E+002 -3.853379E-001  1.709687E-002 -3.842738E-001  1.888988E-002 -2.751487E+001  1.256027E+002
 580.0000     -2.716242E+001  1.164941E+002 -3.844263E-001 -8.998361E-003 -3.838466E-001 -1.135825E-002 -2.758302E+001  1.244945E+002
 600.0000     -2.711685E+001  1.147336E+002 -3.848875E-001 -3.404747E-002 -3.837754E-001 -3.538605E-002 -2.763968E+001  1.229714E+002
 620.0000     -2.715483E+001  1.127335E+002 -3.819633E-001 -6.114700E-002 -3.809766E-001 -5.747962E-002 -2.773234E+001  1.214744E+002
 640.0000     -2.721834E+001  1.111430E+002 -3.807196E-001 -9.348974E-002 -3.794766E-001 -8.900166E-002 -2.776350E+001  1.203939E+002
 660.0000     -2.724709E+001  1.098051E+002 -3.786748E-001 -1.325584E-001 -3.780092E-001 -1.228311E-001 -2.777578E+001  1.195232E+002
 680.0000     -2.725855E+001  1.084502E+002 -3.771625E-001 -1.576285E-001 -3.764611E-001 -1.603458E-001 -2.782259E+001  1.185083E+002
 700.0000     -2.725281E+001  1.069650E+002 -3.761676E-001 -1.989531E-001 -3.756108E-001 -1.957223E-001 -2.788039E+001  1.175506E+002
 720.0000     -2.726731E+001  1.053702E+002 -3.757690E-001 -2.305573E-001 -3.754811E-001 -2.337408E-001 -2.792623E+001  1.163205E+002
 740.0000     -2.726116E+001  1.037680E+002 -3.750179E-001 -2.693506E-001 -3.749189E-001 -2.641242E-001 -2.795232E+001  1.150512E+002
 760.0000     -2.725026E+001  1.022371E+002 -3.751256E-001 -3.034357E-001 -3.744548E-001 -2.980018E-001 -2.795675E+001  1.140217E+002
 780.0000     -2.721483E+001  1.007614E+002 -3.745986E-001 -3.341246E-001 -3.743878E-001 -3.297766E-001 -2.797295E+001  1.132181E+002
 800.0000     -2.718152E+001  9.924874E+001 -3.748927E-001 -3.639474E-001 -3.744435E-001 -3.610942E-001 -2.800424E+001  1.122749E+002
 820.0000     -2.713978E+001  9.771516E+001 -3.745815E-001 -3.991781E-001 -3.746241E-001 -3.924898E-001 -2.805205E+001  1.110378E+002
 840.0000     -2.713038E+001  9.593324E+001 -3.745928E-001 -4.344833E-001 -3.735517E-001 -4.264660E-001 -2.806651E+001  1.095759E+002
 860.0000     -2.713265E+001  9.430492E+001 -3.747007E-001 -4.725274E-001 -3.741680E-001 -4.652964E-001 -2.802999E+001  1.081448E+002
 880.0000     -2.712545E+001  9.270872E+001 -3.756090E-001 -5.026166E-001 -3.747864E-001 -4.958701E-001 -2.798078E+001  1.070116E+002
 900.0000     -2.708210E+001  9.123564E+001 -3.755841E-001 -5.341162E-001 -3.750042E-001 -5.255361E-001 -2.795313E+001  1.060756E+002
 920.0000     -2.703222E+001  8.962202E+001 -3.758607E-001 -5.618681E-001 -3.751415E-001 -5.597928E-001 -2.797206E+001  1.051951E+002
 940.0000     -2.697795E+001  8.799134E+001 -3.763750E-001 -5.949520E-001 -3.756068E-001 -5.946037E-001 -2.797022E+001  1.041251E+002
 960.0000     -2.694032E+001  8.623363E+001 -3.775710E-001 -6.274815E-001 -3.764611E-001 -6.266874E-001 -2.794683E+001  1.028201E+002
 980.0000     -2.690719E+001  8.470667E+001 -3.790734E-001 -6.579741E-001 -3.782599E-001 -6.576972E-001 -2.789118E+001  1.017313E+002
1000.0000     -2.684908E+001  8.315914E+001 -3.791201E-001 -6.888396E-001 -3.790328E-001 -6.883556E-001 -2.784598E+001  1.009068E+002
1020.0000     -2.677354E+001  8.148151E+001 -3.805878E-001 -7.189013E-001 -3.804965E-001 -7.196682E-001 -2.785416E+001  1.000700E+002
1040.0000     -2.670029E+001  7.954192E+001 -3.814140E-001 -7.469916E-001 -3.804638E-001 -7.468348E-001 -2.788514E+001  9.902245E+001
1060.0000     -2.664461E+001  7.757417E+001 -3.826266E-001 -7.751656E-001 -3.819495E-001 -7.747211E-001 -2.791694E+001  9.753195E+001
1080.0000     -2.660083E+001  7.566875E+001 -3.833900E-001 -8.140394E-001 -3.828366E-001 -8.102347E-001 -2.790370E+001  9.598501E+001
1100.0000     -2.655407E+001  7.389306E+001 -3.857568E-001 -8.467914E-001 -3.853782E-001 -8.420532E-001 -2.782394E+001  9.446534E+001
1120.0000     -2.651039E+001  7.207790E+001 -3.876570E-001 -8.682403E-001 -3.866935E-001 -8.665238E-001 -2.774796E+001  9.324281E+001
1140.0000     -2.647798E+001  7.021045E+001 -3.889864E-001 -8.991902E-001 -3.879180E-001 -8.930653E-001 -2.771444E+001  9.198599E+001
1160.0000     -2.643183E+001  6.836597E+001 -3.897730E-001 -9.301948E-001 -3.895545E-001 -9.243217E-001 -2.771305E+001  9.065056E+001
1180.0000     -2.637820E+001  6.646627E+001 -3.914767E-001 -9.603500E-001 -3.912922E-001 -9.559795E-001 -2.764458E+001  8.917221E+001
1200.0000     -2.632189E+001  6.465146E+001 -3.943870E-001 -9.934744E-001 -3.938912E-001 -9.870742E-001 -2.754321E+001  8.767339E+001
1220.0000     -2.626179E+001  6.297104E+001 -3.962883E-001 -1.020209E+000 -3.960168E-001 -1.013963E+000 -2.743221E+001  8.652191E+001
1240.0000     -2.617678E+001  6.125515E+001 -3.984997E-001 -1.049954E+000 -3.976225E-001 -1.041953E+000 -2.738514E+001  8.574085E+001
1260.0000     -2.609848E+001  5.921546E+001 -4.012611E-001 -1.069128E+000 -4.000579E-001 -1.065643E+000 -2.735974E+001  8.463916E+001
1280.0000     -2.603550E+001  5.713936E+001 -4.034180E-001 -1.099763E+000 -4.023276E-001 -1.094217E+000 -2.737711E+001  8.314146E+001
1300.0000     -2.599561E+001  5.504863E+001 -4.069352E-001 -1.126330E+000 -4.050182E-001 -1.118659E+000 -2.736754E+001  8.152067E+001
1320.0000     -2.593415E+001  5.326016E+001 -4.089661E-001 -1.150115E+000 -4.077159E-001 -1.146247E+000 -2.727141E+001  8.008059E+001
1340.0000     -2.585914E+001  5.131778E+001 -4.129131E-001 -1.174260E+000 -4.117919E-001 -1.168303E+000 -2.716053E+001  7.882713E+001
1360.0000     -2.577670E+001  4.936552E+001 -4.152887E-001 -1.192657E+000 -4.145895E-001 -1.183204E+000 -2.711421E+001  7.772282E+001
1380.0000     -2.569548E+001  4.714113E+001 -4.167305E-001 -1.216334E+000 -4.160492E-001 -1.207719E+000 -2.711038E+001  7.626211E+001
1400.0000     -2.565086E+001  4.493523E+001 -4.194873E-001 -1.238658E+000 -4.189025E-001 -1.233855E+000 -2.708939E+001  7.457106E+001
1420.0000     -2.559822E+001  4.291681E+001 -4.225215E-001 -1.265874E+000 -4.215706E-001 -1.260866E+000 -2.702149E+001  7.272636E+001
1440.0000     -2.553259E+001  4.100996E+001 -4.260175E-001 -1.292839E+000 -4.251521E-001 -1.286675E+000 -2.688490E+001  7.106840E+001
1460.0000     -2.545408E+001  3.895181E+001 -4.298047E-001 -1.309334E+000 -4.295844E-001 -1.303321E+000 -2.677405E+001  6.969247E+001
1480.0000     -2.538064E+001  3.677647E+001 -4.333208E-001 -1.324208E+000 -4.327343E-001 -1.319921E+000 -2.673835E+001  6.840390E+001
1500.0000     -2.529730E+001  3.447526E+001 -4.362331E-001 -1.352009E+000 -4.358082E-001 -1.341831E+000 -2.671932E+001  6.691263E+001
1520.0000     -2.524241E+001  3.218328E+001 -4.401267E-001 -1.365547E+000 -4.398031E-001 -1.357986E+000 -2.667660E+001  6.500737E+001
1540.0000     -2.520130E+001  3.004830E+001 -4.440449E-001 -1.379251E+000 -4.428233E-001 -1.373650E+000 -2.660040E+001  6.307978E+001
1560.0000     -2.514814E+001  2.806806E+001 -4.464642E-001 -1.408365E+000 -4.459258E-001 -1.396250E+000 -2.649182E+001  6.166203E+001
1580.0000     -2.504563E+001  2.592430E+001 -4.530957E-001 -1.425391E+000 -4.517423E-001 -1.414311E+000 -2.637045E+001  6.040489E+001
1600.0000     -2.497006E+001  2.344175E+001 -4.577759E-001 -1.428771E+000 -4.571500E-001 -1.417840E+000 -2.635040E+001  5.890111E+001
1620.0000     -2.492270E+001  2.089641E+001 -4.601322E-001 -1.433575E+000 -4.592748E-001 -1.422486E+000 -2.637724E+001  5.702804E+001
1640.0000     -2.489426E+001  1.863817E+001 -4.620994E-001 -1.457942E+000 -4.609252E-001 -1.449004E+000 -2.635648E+001  5.513467E+001
1660.0000     -2.484161E+001  1.633626E+001 -4.696531E-001 -1.477391E+000 -4.682285E-001 -1.473212E+000 -2.623130E+001  5.309489E+001
1680.0000     -2.477381E+001  1.405438E+001 -4.751786E-001 -1.475932E+000 -4.746105E-001 -1.473488E+000 -2.608691E+001  5.130603E+001
1700.0000     -2.472985E+001  1.161944E+001 -4.798222E-001 -1.470641E+000 -4.778127E-001 -1.464153E+000 -2.603729E+001  4.975560E+001
1720.0000     -2.466793E+001  9.439660E+000 -4.821118E-001 -1.494101E+000 -4.807730E-001 -1.486964E+000 -2.599674E+001  4.859293E+001
1740.0000     -2.459072E+001  6.833085E+000 -4.882277E-001 -1.496775E+000 -4.876502E-001 -1.486402E+000 -2.591704E+001  4.639608E+001
1760.0000     -2.457292E+001  4.200728E+000 -4.942543E-001 -1.491820E+000 -4.932686E-001 -1.486826E+000 -2.583932E+001  4.385305E+001
1780.0000     -2.456150E+001  1.852439E+000 -4.972142E-001 -1.485249E+000 -4.961624E-001 -1.475865E+000 -2.575276E+001  4.169167E+001
1800.0000     -2.448171E+001 -2.833373E-001 -5.032609E-001 -1.505319E+000 -5.021541E-001 -1.499659E+000 -2.559246E+001  4.029846E+001
1820.0000     -2.438326E+001 -2.982216E+000 -5.115597E-001 -1.492614E+000 -5.107448E-001 -1.489639E+000 -2.548903E+001  3.847314E+001
1840.0000     -2.433396E+001 -5.922441E+000 -5.164416E-001 -1.464712E+000 -5.159732E-001 -1.460332E+000 -2.550732E+001  3.630603E+001
1860.0000     -2.435449E+001 -8.589134E+000 -5.172938E-001 -1.447373E+000 -5.164842E-001 -1.439601E+000 -2.557467E+001  3.415249E+001
1880.0000     -2.428795E+001 -1.085018E+001 -5.240771E-001 -1.478653E+000 -5.233371E-001 -1.471477E+000 -2.544401E+001  3.220267E+001
1900.0000     -2.423102E+001 -1.371447E+001 -5.344501E-001 -1.448890E+000 -5.342794E-001 -1.447150E+000 -2.528605E+001  2.958155E+001
1920.0000     -2.421069E+001 -1.671054E+001 -5.412193E-001 -1.396471E+000 -5.404041E-001 -1.392138E+000 -2.523669E+001  2.726765E+001
1940.0000     -2.425687E+001 -1.927620E+001 -5.407685E-001 -1.361417E+000 -5.401958E-001 -1.358388E+000 -2.531421E+001  2.578016E+001
1960.0000     -2.414490E+001 -2.186258E+001 -5.490915E-001 -1.361508E+000 -5.483427E-001 -1.356975E+000 -2.520751E+001  2.385333E+001
1980.0000     -2.411134E+001 -2.533339E+001 -5.574721E-001 -1.300981E+000 -5.562493E-001 -1.297391E+000 -2.514650E+001  2.045063E+001
2000.0000     -2.417645E+001 -2.863232E+001 -5.606756E-001 -1.226915E+000 -5.594028E-001 -1.215526E+000 -2.512344E+001  1.701101E+001
2020.0000     -2.425895E+001 -3.091226E+001 -5.576389E-001 -1.207443E+000 -5.563323E-001 -1.199734E+000 -2.511926E+001  1.507705E+001
2040.0000     -2.414466E+001 -3.390728E+001 -5.702986E-001 -1.175979E+000 -5.688446E-001 -1.168259E+000 -2.489599E+001  1.283551E+001
2060.0000     -2.417079E+001 -3.784845E+001 -5.763854E-001 -1.063442E+000 -5.746511E-001 -1.059024E+000 -2.490865E+001  9.573800E+000
2080.0000     -2.433823E+001 -4.161096E+001 -5.721948E-001 -9.430481E-001 -5.702382E-001 -9.413580E-001 -2.509599E+001  6.158644E+000
2100.0000     -2.447724E+001 -4.411474E+001 -5.668639E-001 -9.247329E-001 -5.651047E-001 -9.225071E-001 -2.519615E+001  3.935936E+000
2120.0000     -2.445982E+001 -4.791137E+001 -5.773553E-001 -8.277176E-001 -5.759218E-001 -8.233933E-001 -2.503689E+001  1.055100E-001
2140.0000     -2.466059E+001 -5.221218E+001 -5.748870E-001 -6.561834E-001 -5.734751E-001 -6.566955E-001 -2.512435E+001 -4.226772E+000
2160.0000     -2.503273E+001 -5.578644E+001 -5.559109E-001 -5.115614E-001 -5.544312E-001 -5.090899E-001 -2.547802E+001 -7.667948E+000
2180.0000     -2.527119E+001 -5.791763E+001 -5.427132E-001 -4.969604E-001 -5.417095E-001 -4.987921E-001 -2.575724E+001 -9.275450E+000
2200.0000     -2.547047E+001 -6.235062E+001 -5.382726E-001 -3.400173E-001 -5.367588E-001 -3.414966E-001 -2.588479E+001 -1.435441E+001
2220.0000     -2.607522E+001 -6.646412E+001 -5.082824E-001 -1.850567E-001 -5.085768E-001 -1.813526E-001 -2.636077E+001 -1.991990E+001
2240.0000     -2.680695E+001 -6.809009E+001 -4.726588E-001 -1.645459E-001 -4.728301E-001 -1.616064E-001 -2.698268E+001 -2.251333E+001
2260.0000     -2.723066E+001 -6.899819E+001 -4.558102E-001 -1.835988E-001 -4.563807E-001 -1.806497E-001 -2.720994E+001 -2.379079E+001
2280.0000     -2.797167E+001 -7.091182E+001 -4.238734E-001 -9.335420E-002 -4.238032E-001 -8.688426E-002 -2.785732E+001 -2.792863E+001
2300.0000     -2.885018E+001 -6.927016E+001 -3.798203E-001 -1.726981E-001 -3.796227E-001 -1.621744E-001 -2.913607E+001 -2.894523E+001
2320.0000     -2.921639E+001 -6.516226E+001 -3.519464E-001 -3.611243E-001 -3.518252E-001 -3.494383E-001 -3.001541E+001 -2.667009E+001
2340.0000     -2.937086E+001 -6.313168E+001 -3.372695E-001 -4.833443E-001 -3.364206E-001 -4.733123E-001 -3.043950E+001 -2.574950E+001
2360.0000     -2.956748E+001 -5.920398E+001 -3.148735E-001 -6.320325E-001 -3.146184E-001 -6.201035E-001 -3.106592E+001 -2.274161E+001
2380.0000     -2.928128E+001 -5.508423E+001 -3.012970E-001 -8.346226E-001 -3.002166E-001 -8.249778E-001 -3.133228E+001 -1.643142E+001
2400.0000     -2.880096E+001 -5.290531E+001 -2.962944E-001 -1.030668E+000 -2.948125E-001 -1.019837E+000 -3.130737E+001 -1.023302E+001
2420.0000     -2.825188E+001 -5.253881E+001 -2.979179E-001 -1.206135E+000 -2.957579E-001 -1.192468E+000 -3.108062E+001 -6.385421E+000
2440.0000     -2.782431E+001 -5.313449E+001 -3.002333E-001 -1.344785E+000 -2.994588E-001 -1.337355E+000 -3.084533E+001 -5.201782E+000
2460.0000     -2.740664E+001 -5.354026E+001 -3.050180E-001 -1.484612E+000 -3.033236E-001 -1.477787E+000 -3.047285E+001 -4.103774E+000
2480.0000     -2.687357E+001 -5.455821E+001 -3.133187E-001 -1.625600E+000 -3.111382E-001 -1.619896E+000 -2.981308E+001 -3.597954E+000
2500.0000     -2.643554E+001 -5.696609E+001 -3.274356E-001 -1.719584E+000 -3.260783E-001 -1.716724E+000 -2.922237E+001 -4.139877E+000
2520.0000     -2.618275E+001 -5.921167E+001 -3.343984E-001 -1.762419E+000 -3.338320E-001 -1.759212E+000 -2.905468E+001 -4.872152E+000
2540.0000     -2.589848E+001 -6.136012E+001 -3.400643E-001 -1.852032E+000 -3.386799E-001 -1.852392E+000 -2.889468E+001 -4.977944E+000
2560.0000     -2.559416E+001 -6.377251E+001 -3.515437E-001 -1.927775E+000 -3.492979E-001 -1.924930E+000 -2.856861E+001 -6.557155E+000
2580.0000     -2.535194E+001 -6.663864E+001 -3.627405E-001 -1.965298E+000 -3.599052E-001 -1.960943E+000 -2.816068E+001 -9.408166E+000
2600.0000     -2.523088E+001 -6.896548E+001 -3.689610E-001 -1.978976E+000 -3.666522E-001 -1.974742E+000 -2.792853E+001 -1.129789E+001
2620.0000     -2.496770E+001 -7.116328E+001 -3.722409E-001 -2.010912E+000 -3.706428E-001 -2.007439E+000 -2.765722E+001 -1.134695E+001
2640.0000     -2.471162E+001 -7.453458E+001 -3.764358E-001 -2.045769E+000 -3.744739E-001 -2.046957E+000 -2.739340E+001 -1.193430E+001
2660.0000     -2.464857E+001 -7.815355E+001 -3.803590E-001 -2.087411E+000 -3.778598E-001 -2.085361E+000 -2.720116E+001 -1.449002E+001
2680.0000     -2.460630E+001 -8.088051E+001 -3.801179E-001 -2.119342E+000 -3.777457E-001 -2.116969E+000 -2.712859E+001 -1.712722E+001
2700.0000     -2.460015E+001 -8.362038E+001 -3.780888E-001 -2.219439E+000 -3.760608E-001 -2.223847E+000 -2.671778E+001 -2.002871E+001
2720.0000     -2.463577E+001 -8.515501E+001 -3.965111E-001 -2.340098E+000 -3.936265E-001 -2.341997E+000 -2.656019E+001 -2.381068E+001
2740.0000     -2.446866E+001 -8.722539E+001 -4.107501E-001 -2.336375E+000 -4.089582E-001 -2.336451E+000 -2.663670E+001 -2.568928E+001
2760.0000     -2.442134E+001 -8.965926E+001 -4.163992E-001 -2.350790E+000 -4.146973E-001 -2.361076E+000 -2.677937E+001 -2.743466E+001
