!Created: 07-29-2019 at 10:54:55
!Mini-Circuits
!S2P DATA File Format
!Type: RF CHOKE
!Port 1: RF; Port 2: RF AND DC IN
!TEST CONDITIONS: Z:50 OHM SYSTEM, INPUT POWER = -10dBm, TEMP:25°C
!REMARKS: TESTED WITH 0 mA CURRENT; FULL 2 PORT CALIBRATION OF THE SYSTEM; FIXTURE THRU LINE LOSS NORMALIZED VIA DATA/MEMORY FUNCTION; FIXTURE RETURN LOSS NORMALIZED VIA DATA-MEMORY FUNCTION.
!FIXTURE: 90-2-20-165
!PRESSING ARM: B85-TA-076
!MODEL: TCCH-80+
!S/N: U2_0mA
# MHZ S DB R 50
!Frequency          S11 dB    S11 DEG     S21 dB    S21 DEG     S12 dB    S12 DEG     S22 dB    S22 DEG
  10.0000     -1.640446E+001  1.261027E+002 -7.484576E-001  7.509358E+000 -7.479202E-001  7.495736E+000 -1.636932E+001  1.249438E+002
  20.0000     -2.008362E+001  1.325683E+002 -6.098887E-001  4.391145E+000 -6.086321E-001  4.383730E+000 -1.997624E+001  1.320290E+002
  30.0000     -2.167292E+001  1.367106E+002 -5.491027E-001  3.286993E+000 -5.477600E-001  3.279870E+000 -2.164860E+001  1.362513E+002
  40.0000     -2.274078E+001  1.381137E+002 -5.075513E-001  2.684110E+000 -5.067902E-001  2.682798E+000 -2.274008E+001  1.383169E+002
  50.0000     -2.375673E+001  1.400895E+002 -4.709959E-001  2.246204E+000 -4.775558E-001  2.269084E+000 -2.360391E+001  1.398060E+002
  60.0000     -2.434876E+001  1.403572E+002 -4.518836E-001  2.032185E+000 -4.514795E-001  2.026454E+000 -2.423411E+001  1.405847E+002
  70.0000     -2.483271E+001  1.412425E+002 -4.329629E-001  1.803120E+000 -4.322316E-001  1.804289E+000 -2.479447E+001  1.415947E+002
  80.0000     -2.526897E+001  1.413671E+002 -4.182947E-001  1.618896E+000 -4.169792E-001  1.616833E+000 -2.525624E+001  1.423645E+002
  90.0000     -2.576625E+001  1.418606E+002 -4.061130E-001  1.454215E+000 -4.051528E-001  1.451187E+000 -2.567943E+001  1.430991E+002
 100.0000     -2.613555E+001  1.429123E+002 -3.964015E-001  1.313548E+000 -3.954787E-001  1.311465E+000 -2.605004E+001  1.439203E+002
 120.0000     -2.662769E+001  1.439853E+002 -3.821967E-001  1.078223E+000 -3.814545E-001  1.074578E+000 -2.661179E+001  1.456659E+002
 140.0000     -2.708399E+001  1.453772E+002 -3.735356E-001  8.798752E-001 -3.723812E-001  8.885859E-001 -2.701356E+001  1.471291E+002
 160.0000     -2.728659E+001  1.462358E+002 -3.681599E-001  7.289365E-001 -3.673326E-001  7.254597E-001 -2.728848E+001  1.483779E+002
 180.0000     -2.754562E+001  1.469229E+002 -3.655495E-001  5.976216E-001 -3.642737E-001  5.968301E-001 -2.746707E+001  1.491864E+002
 200.0000     -2.763061E+001  1.471389E+002 -3.638385E-001  4.906858E-001 -3.619989E-001  4.884860E-001 -2.760142E+001  1.497010E+002
 220.0000     -2.773100E+001  1.470194E+002 -3.633165E-001  3.973011E-001 -3.615199E-001  3.990317E-001 -2.768707E+001  1.496828E+002
 240.0000     -2.770628E+001  1.464746E+002 -3.629052E-001  3.147368E-001 -3.616574E-001  3.152803E-001 -2.778051E+001  1.494527E+002
 260.0000     -2.775354E+001  1.456820E+002 -3.630498E-001  2.440886E-001 -3.619121E-001  2.429635E-001 -2.783315E+001  1.490551E+002
 280.0000     -2.770145E+001  1.450276E+002 -3.641433E-001  1.787682E-001 -3.624947E-001  1.787926E-001 -2.786775E+001  1.485881E+002
 300.0000     -2.770180E+001  1.441378E+002 -3.654819E-001  1.233351E-001 -3.629242E-001  1.238697E-001 -2.786839E+001  1.481450E+002
 320.0000     -2.765848E+001  1.431985E+002 -3.651819E-001  7.476889E-002 -3.637178E-001  7.435630E-002 -2.786233E+001  1.474500E+002
 340.0000     -2.764508E+001  1.418954E+002 -3.650868E-001  2.730708E-002 -3.650287E-001  2.496245E-002 -2.786818E+001  1.466422E+002
 360.0000     -2.758909E+001  1.406391E+002 -3.666018E-001 -1.117238E-002 -3.652764E-001 -1.792382E-002 -2.788105E+001  1.456608E+002
 380.0000     -2.758277E+001  1.390388E+002 -3.669146E-001 -5.402617E-002 -3.657705E-001 -5.563137E-002 -2.788361E+001  1.445462E+002
 400.0000     -2.756196E+001  1.377168E+002 -3.681698E-001 -9.028724E-002 -3.658901E-001 -9.292933E-002 -2.787140E+001  1.433913E+002
 420.0000     -2.757697E+001  1.360480E+002 -3.679779E-001 -1.267397E-001 -3.674793E-001 -1.269433E-001 -2.787372E+001  1.423700E+002
 440.0000     -2.756180E+001  1.347793E+002 -3.693759E-001 -1.581580E-001 -3.674831E-001 -1.595755E-001 -2.787434E+001  1.414025E+002
 460.0000     -2.752575E+001  1.332497E+002 -3.692102E-001 -1.969555E-001 -3.672217E-001 -1.911983E-001 -2.788911E+001  1.402153E+002
 480.0000     -2.749091E+001  1.318045E+002 -3.697218E-001 -2.258779E-001 -3.679395E-001 -2.235771E-001 -2.788811E+001  1.389047E+002
 500.0000     -2.747852E+001  1.301352E+002 -3.706988E-001 -2.616466E-001 -3.682846E-001 -2.623440E-001 -2.784666E+001  1.374597E+002
 520.0000     -2.747639E+001  1.288085E+002 -3.712135E-001 -2.914384E-001 -3.701614E-001 -2.930714E-001 -2.779201E+001  1.360823E+002
 540.0000     -2.744644E+001  1.271489E+002 -3.725237E-001 -3.204151E-001 -3.718670E-001 -3.237465E-001 -2.772449E+001  1.348648E+002
 560.0000     -2.741111E+001  1.256819E+002 -3.732299E-001 -3.410147E-001 -3.725137E-001 -3.434717E-001 -2.770057E+001  1.337256E+002
 580.0000     -2.735074E+001  1.239520E+002 -3.735545E-001 -3.649348E-001 -3.730311E-001 -3.668246E-001 -2.772140E+001  1.325890E+002
 600.0000     -2.729022E+001  1.220570E+002 -3.756033E-001 -3.891681E-001 -3.740767E-001 -3.866335E-001 -2.773787E+001  1.309190E+002
 620.0000     -2.730045E+001  1.200072E+002 -3.737948E-001 -4.064997E-001 -3.719875E-001 -4.020076E-001 -2.779905E+001  1.293683E+002
 640.0000     -2.732508E+001  1.183883E+002 -3.735289E-001 -4.336801E-001 -3.718318E-001 -4.351700E-001 -2.779023E+001  1.282205E+002
 660.0000     -2.730905E+001  1.168949E+002 -3.726135E-001 -4.649281E-001 -3.711415E-001 -4.626925E-001 -2.775389E+001  1.272327E+002
 680.0000     -2.730100E+001  1.154125E+002 -3.720551E-001 -4.894542E-001 -3.709724E-001 -4.905638E-001 -2.776220E+001  1.260887E+002
 700.0000     -2.725844E+001  1.138594E+002 -3.724839E-001 -5.227624E-001 -3.711550E-001 -5.235918E-001 -2.778365E+001  1.250135E+002
 720.0000     -2.724105E+001  1.121398E+002 -3.729674E-001 -5.528735E-001 -3.709785E-001 -5.545117E-001 -2.779509E+001  1.236675E+002
 740.0000     -2.720210E+001  1.103532E+002 -3.732159E-001 -5.863221E-001 -3.714948E-001 -5.831019E-001 -2.778963E+001  1.222445E+002
 760.0000     -2.717542E+001  1.086452E+002 -3.738082E-001 -6.156266E-001 -3.721294E-001 -6.133361E-001 -2.776058E+001  1.209905E+002
 780.0000     -2.710542E+001  1.071000E+002 -3.749399E-001 -6.392050E-001 -3.732463E-001 -6.389484E-001 -2.774043E+001  1.200427E+002
 800.0000     -2.703777E+001  1.053582E+002 -3.753616E-001 -6.626860E-001 -3.733683E-001 -6.674464E-001 -2.774067E+001  1.189525E+002
 820.0000     -2.698771E+001  1.035888E+002 -3.760431E-001 -6.950423E-001 -3.747166E-001 -6.952380E-001 -2.776526E+001  1.175334E+002
 840.0000     -2.696510E+001  1.017732E+002 -3.765136E-001 -7.266216E-001 -3.751664E-001 -7.260009E-001 -2.776003E+001  1.159244E+002
 860.0000     -2.693119E+001  9.999578E+001 -3.772461E-001 -7.599869E-001 -3.766552E-001 -7.599378E-001 -2.770776E+001  1.143268E+002
 880.0000     -2.691392E+001  9.819852E+001 -3.790235E-001 -7.844254E-001 -3.783374E-001 -7.853453E-001 -2.763667E+001  1.129908E+002
 900.0000     -2.685589E+001  9.664306E+001 -3.793243E-001 -8.118025E-001 -3.794197E-001 -8.064254E-001 -2.758908E+001  1.118586E+002
 920.0000     -2.678488E+001  9.481760E+001 -3.804243E-001 -8.362116E-001 -3.797153E-001 -8.332251E-001 -2.758331E+001  1.108189E+002
 940.0000     -2.672522E+001  9.300865E+001 -3.811212E-001 -8.671355E-001 -3.803658E-001 -8.632189E-001 -2.756525E+001  1.095827E+002
 960.0000     -2.667827E+001  9.115321E+001 -3.834198E-001 -8.958533E-001 -3.816480E-001 -8.936727E-001 -2.752293E+001  1.080931E+002
 980.0000     -2.662379E+001  8.952032E+001 -3.847826E-001 -9.199055E-001 -3.835638E-001 -9.256966E-001 -2.744999E+001  1.068121E+002
1000.0000     -2.654970E+001  8.775412E+001 -3.864742E-001 -9.468604E-001 -3.853472E-001 -9.513728E-001 -2.739358E+001  1.057523E+002
1020.0000     -2.647361E+001  8.588868E+001 -3.878262E-001 -9.700670E-001 -3.870457E-001 -9.748527E-001 -2.738055E+001  1.047782E+002
1040.0000     -2.639892E+001  8.385593E+001 -3.896711E-001 -9.966876E-001 -3.883508E-001 -9.973678E-001 -2.739572E+001  1.035631E+002
1060.0000     -2.633123E+001  8.178032E+001 -3.906538E-001 -1.021771E+000 -3.899581E-001 -1.024848E+000 -2.741696E+001  1.019283E+002
1080.0000     -2.627983E+001  7.966846E+001 -3.923053E-001 -1.058959E+000 -3.906038E-001 -1.059017E+000 -2.739770E+001  1.002441E+002
1100.0000     -2.624163E+001  7.779617E+001 -3.952172E-001 -1.088282E+000 -3.934066E-001 -1.087259E+000 -2.731467E+001  9.857567E+001
1120.0000     -2.618652E+001  7.596501E+001 -3.973064E-001 -1.105884E+000 -3.952274E-001 -1.110493E+000 -2.722905E+001  9.718565E+001
1140.0000     -2.614002E+001  7.397314E+001 -3.990066E-001 -1.131468E+000 -3.971196E-001 -1.130932E+000 -2.718743E+001  9.576727E+001
1160.0000     -2.609019E+001  7.194078E+001 -4.003980E-001 -1.158308E+000 -3.982610E-001 -1.160508E+000 -2.717223E+001  9.428922E+001
1180.0000     -2.604922E+001  6.995491E+001 -4.025244E-001 -1.186089E+000 -4.005553E-001 -1.190541E+000 -2.709961E+001  9.267021E+001
1200.0000     -2.597834E+001  6.814639E+001 -4.061925E-001 -1.214901E+000 -4.040976E-001 -1.218646E+000 -2.699644E+001  9.101273E+001
1220.0000     -2.590274E+001  6.626529E+001 -4.081321E-001 -1.238298E+000 -4.067916E-001 -1.245083E+000 -2.688442E+001  8.968804E+001
1240.0000     -2.582780E+001  6.442200E+001 -4.110146E-001 -1.266810E+000 -4.093954E-001 -1.270444E+000 -2.683100E+001  8.870853E+001
1260.0000     -2.574041E+001  6.233897E+001 -4.138434E-001 -1.283503E+000 -4.130512E-001 -1.291257E+000 -2.680518E+001  8.747145E+001
1280.0000     -2.567726E+001  6.011459E+001 -4.165382E-001 -1.308858E+000 -4.154195E-001 -1.313582E+000 -2.681450E+001  8.583884E+001
1300.0000     -2.564041E+001  5.794431E+001 -4.201132E-001 -1.335268E+000 -4.181724E-001 -1.334391E+000 -2.679866E+001  8.414006E+001
1320.0000     -2.556951E+001  5.611703E+001 -4.224796E-001 -1.355405E+000 -4.211887E-001 -1.356381E+000 -2.671124E+001  8.258989E+001
1340.0000     -2.548881E+001  5.403450E+001 -4.273712E-001 -1.379485E+000 -4.255587E-001 -1.372797E+000 -2.660100E+001  8.118784E+001
1360.0000     -2.541284E+001  5.192846E+001 -4.298301E-001 -1.391278E+000 -4.284175E-001 -1.387321E+000 -2.655037E+001  7.988795E+001
1380.0000     -2.534378E+001  4.968165E+001 -4.321427E-001 -1.409431E+000 -4.303481E-001 -1.408046E+000 -2.654895E+001  7.831130E+001
1400.0000     -2.528955E+001  4.743137E+001 -4.349009E-001 -1.429500E+000 -4.334025E-001 -1.430669E+000 -2.652753E+001  7.653720E+001
1420.0000     -2.523596E+001  4.529692E+001 -4.378303E-001 -1.453980E+000 -4.358324E-001 -1.457740E+000 -2.645454E+001  7.458231E+001
1440.0000     -2.517706E+001  4.332156E+001 -4.419320E-001 -1.479120E+000 -4.402937E-001 -1.482009E+000 -2.633121E+001  7.281709E+001
1460.0000     -2.509282E+001  4.123680E+001 -4.457514E-001 -1.493339E+000 -4.447604E-001 -1.495107E+000 -2.621856E+001  7.132645E+001
1480.0000     -2.501191E+001  3.895323E+001 -4.493249E-001 -1.502070E+000 -4.483683E-001 -1.506989E+000 -2.618146E+001  6.989905E+001
1500.0000     -2.493832E+001  3.653796E+001 -4.532915E-001 -1.525317E+000 -4.510253E-001 -1.527843E+000 -2.615566E+001  6.828519E+001
1520.0000     -2.489396E+001  3.421911E+001 -4.573250E-001 -1.540862E+000 -4.552170E-001 -1.547287E+000 -2.611308E+001  6.631420E+001
1540.0000     -2.483909E+001  3.209051E+001 -4.618256E-001 -1.554054E+000 -4.594680E-001 -1.558831E+000 -2.604513E+001  6.428185E+001
1560.0000     -2.477940E+001  2.999183E+001 -4.645460E-001 -1.576626E+000 -4.627226E-001 -1.582719E+000 -2.594429E+001  6.275539E+001
1580.0000     -2.468674E+001  2.772915E+001 -4.707555E-001 -1.589152E+000 -4.691017E-001 -1.599398E+000 -2.582702E+001  6.137930E+001
1600.0000     -2.461334E+001  2.523995E+001 -4.763608E-001 -1.593255E+000 -4.754085E-001 -1.598914E+000 -2.581502E+001  5.974035E+001
1620.0000     -2.455673E+001  2.257891E+001 -4.795367E-001 -1.593424E+000 -4.782805E-001 -1.601236E+000 -2.583698E+001  5.778640E+001
1640.0000     -2.454660E+001  2.022944E+001 -4.814373E-001 -1.613256E+000 -4.807577E-001 -1.623160E+000 -2.582073E+001  5.578133E+001
1660.0000     -2.449345E+001  1.799529E+001 -4.892817E-001 -1.632434E+000 -4.882186E-001 -1.640695E+000 -2.570297E+001  5.371157E+001
1680.0000     -2.441801E+001  1.562866E+001 -4.956613E-001 -1.630841E+000 -4.949321E-001 -1.635274E+000 -2.556465E+001  5.179081E+001
1700.0000     -2.437637E+001  1.305772E+001 -5.004364E-001 -1.617340E+000 -4.990092E-001 -1.624302E+000 -2.552738E+001  5.012083E+001
1720.0000     -2.432703E+001  1.086784E+001 -5.030406E-001 -1.639121E+000 -5.022897E-001 -1.636374E+000 -2.548652E+001  4.894056E+001
1740.0000     -2.425010E+001  8.287671E+000 -5.093120E-001 -1.638719E+000 -5.086300E-001 -1.639082E+000 -2.540411E+001  4.664280E+001
1760.0000     -2.422066E+001  5.589518E+000 -5.162837E-001 -1.628310E+000 -5.150928E-001 -1.632357E+000 -2.533322E+001  4.408331E+001
1780.0000     -2.421335E+001  3.142448E+000 -5.191637E-001 -1.622059E+000 -5.178474E-001 -1.615280E+000 -2.525216E+001  4.183580E+001
1800.0000     -2.414218E+001  9.814027E-001 -5.250184E-001 -1.640718E+000 -5.236030E-001 -1.638528E+000 -2.509774E+001  4.041106E+001
1820.0000     -2.404186E+001 -1.713832E+000 -5.342656E-001 -1.621957E+000 -5.327770E-001 -1.626708E+000 -2.499645E+001  3.845932E+001
1840.0000     -2.398642E+001 -4.725749E+000 -5.402322E-001 -1.585704E+000 -5.380687E-001 -1.590024E+000 -2.501578E+001  3.622784E+001
1860.0000     -2.401212E+001 -7.469146E+000 -5.404198E-001 -1.566378E+000 -5.385433E-001 -1.566640E+000 -2.508655E+001  3.393173E+001
1880.0000     -2.395469E+001 -9.730402E+000 -5.483869E-001 -1.594650E+000 -5.463959E-001 -1.596025E+000 -2.496376E+001  3.197666E+001
1900.0000     -2.388843E+001 -1.256283E+001 -5.591931E-001 -1.557459E+000 -5.575163E-001 -1.568943E+000 -2.481467E+001  2.926396E+001
1920.0000     -2.385700E+001 -1.567018E+001 -5.658184E-001 -1.496175E+000 -5.644297E-001 -1.503886E+000 -2.477260E+001  2.685663E+001
1940.0000     -2.391564E+001 -1.836375E+001 -5.649952E-001 -1.459045E+000 -5.632454E-001 -1.464230E+000 -2.485202E+001  2.523602E+001
1960.0000     -2.380945E+001 -2.091068E+001 -5.737520E-001 -1.458894E+000 -5.720407E-001 -1.467695E+000 -2.474765E+001  2.325577E+001
1980.0000     -2.376928E+001 -2.441132E+001 -5.824112E-001 -1.390674E+000 -5.806295E-001 -1.403034E+000 -2.468805E+001  1.982086E+001
2000.0000     -2.383566E+001 -2.782605E+001 -5.857453E-001 -1.307926E+000 -5.843834E-001 -1.315677E+000 -2.467171E+001  1.630399E+001
2020.0000     -2.393131E+001 -3.010239E+001 -5.821681E-001 -1.282973E+000 -5.811852E-001 -1.295308E+000 -2.468197E+001  1.435780E+001
2040.0000     -2.380258E+001 -3.310922E+001 -5.959749E-001 -1.254791E+000 -5.952221E-001 -1.259530E+000 -2.446033E+001  1.204145E+001
2060.0000     -2.382844E+001 -3.716645E+001 -6.028537E-001 -1.129202E+000 -6.011681E-001 -1.136639E+000 -2.447400E+001  8.659791E+000
2080.0000     -2.400814E+001 -4.096737E+001 -5.983784E-001 -9.992015E-001 -5.967577E-001 -1.006316E+000 -2.465920E+001  5.144735E+000
2100.0000     -2.414733E+001 -4.335308E+001 -5.922712E-001 -9.748588E-001 -5.914123E-001 -9.813987E-001 -2.477426E+001  2.872838E+000
2120.0000     -2.411740E+001 -4.721218E+001 -6.033446E-001 -8.721094E-001 -6.026270E-001 -8.723675E-001 -2.460356E+001 -9.660278E-001
2140.0000     -2.431774E+001 -5.161279E+001 -6.012374E-001 -6.846097E-001 -5.999838E-001 -6.893473E-001 -2.469126E+001 -5.435195E+000
2160.0000     -2.469655E+001 -5.521775E+001 -5.806230E-001 -5.296740E-001 -5.791538E-001 -5.317584E-001 -2.506635E+001 -9.032226E+000
2180.0000     -2.492694E+001 -5.732649E+001 -5.665057E-001 -5.106367E-001 -5.650107E-001 -5.181388E-001 -2.535842E+001 -1.071626E+001
2200.0000     -2.511437E+001 -6.179980E+001 -5.623242E-001 -3.478671E-001 -5.600517E-001 -3.500812E-001 -2.547056E+001 -1.589178E+001
2220.0000     -2.571854E+001 -6.595682E+001 -5.312747E-001 -1.862064E-001 -5.296966E-001 -1.836088E-001 -2.595845E+001 -2.159592E+001
2240.0000     -2.644662E+001 -6.761496E+001 -4.942290E-001 -1.629605E-001 -4.921345E-001 -1.670410E-001 -2.660451E+001 -2.434040E+001
2260.0000     -2.685929E+001 -6.859212E+001 -4.765947E-001 -1.728745E-001 -4.753142E-001 -1.827879E-001 -2.683729E+001 -2.564076E+001
2280.0000     -2.756981E+001 -7.070175E+001 -4.433334E-001 -8.022308E-002 -4.420485E-001 -8.124871E-002 -2.748807E+001 -2.996767E+001
2300.0000     -2.845051E+001 -6.932144E+001 -3.974000E-001 -1.495654E-001 -3.952602E-001 -1.584577E-001 -2.875259E+001 -3.132031E+001
2320.0000     -2.883043E+001 -6.537279E+001 -3.683476E-001 -3.469818E-001 -3.667742E-001 -3.522816E-001 -2.967547E+001 -2.924704E+001
2340.0000     -2.897711E+001 -6.346591E+001 -3.530935E-001 -4.662156E-001 -3.506846E-001 -4.757971E-001 -3.012576E+001 -2.847156E+001
2360.0000     -2.920090E+001 -5.996638E+001 -3.297763E-001 -6.146936E-001 -3.278766E-001 -6.166480E-001 -3.079069E+001 -2.570767E+001
2380.0000     -2.896913E+001 -5.595373E+001 -3.147521E-001 -8.213609E-001 -3.124379E-001 -8.275552E-001 -3.114958E+001 -1.951212E+001
2400.0000     -2.852029E+001 -5.380335E+001 -3.091150E-001 -1.015477E+000 -3.066663E-001 -1.025073E+000 -3.120816E+001 -1.327262E+001
2420.0000     -2.800156E+001 -5.336817E+001 -3.104020E-001 -1.190261E+000 -3.068414E-001 -1.205500E+000 -3.104182E+001 -9.173376E+000
2440.0000     -2.759610E+001 -5.386930E+001 -3.123750E-001 -1.337012E+000 -3.111370E-001 -1.348848E+000 -3.081653E+001 -7.601860E+000
2460.0000     -2.719101E+001 -5.421046E+001 -3.160617E-001 -1.481139E+000 -3.134697E-001 -1.492845E+000 -3.047381E+001 -6.353481E+000
2480.0000     -2.666978E+001 -5.522783E+001 -3.239237E-001 -1.625184E+000 -3.217104E-001 -1.639294E+000 -2.982981E+001 -5.445048E+000
2500.0000     -2.625095E+001 -5.758591E+001 -3.383572E-001 -1.723465E+000 -3.367577E-001 -1.736316E+000 -2.923943E+001 -5.766645E+000
2520.0000     -2.600031E+001 -5.974408E+001 -3.447396E-001 -1.764992E+000 -3.439010E-001 -1.783014E+000 -2.906173E+001 -6.467982E+000
2540.0000     -2.572344E+001 -6.180006E+001 -3.504388E-001 -1.855770E+000 -3.487728E-001 -1.871238E+000 -2.891219E+001 -6.509941E+000
2560.0000     -2.542108E+001 -6.415522E+001 -3.611726E-001 -1.931696E+000 -3.596945E-001 -1.944794E+000 -2.857178E+001 -7.997789E+000
2580.0000     -2.517450E+001 -6.695853E+001 -3.722929E-001 -1.971184E+000 -3.706314E-001 -1.983078E+000 -2.815440E+001 -1.075842E+001
2600.0000     -2.504992E+001 -6.934119E+001 -3.785093E-001 -1.984574E+000 -3.769001E-001 -1.994956E+000 -2.791613E+001 -1.257196E+001
2620.0000     -2.479328E+001 -7.157334E+001 -3.815330E-001 -2.017570E+000 -3.802385E-001 -2.030574E+000 -2.765672E+001 -1.264107E+001
2640.0000     -2.454604E+001 -7.489283E+001 -3.851364E-001 -2.057289E+000 -3.841909E-001 -2.067006E+000 -2.738571E+001 -1.310214E+001
2660.0000     -2.447718E+001 -7.841933E+001 -3.886234E-001 -2.097508E+000 -3.874629E-001 -2.105708E+000 -2.718822E+001 -1.563931E+001
2680.0000     -2.443562E+001 -8.117232E+001 -3.881276E-001 -2.135529E+000 -3.870138E-001 -2.138120E+000 -2.711904E+001 -1.824707E+001
2700.0000     -2.442736E+001 -8.395329E+001 -3.867752E-001 -2.234933E+000 -3.844188E-001 -2.247127E+000 -2.670316E+001 -2.102259E+001
2720.0000     -2.445910E+001 -8.551003E+001 -4.050301E-001 -2.357145E+000 -4.022819E-001 -2.367395E+000 -2.654639E+001 -2.479177E+001
2740.0000     -2.430186E+001 -8.762115E+001 -4.201505E-001 -2.353981E+000 -4.173445E-001 -2.361341E+000 -2.662310E+001 -2.665481E+001
2760.0000     -2.425771E+001 -8.997711E+001 -4.254786E-001 -2.366328E+000 -4.228177E-001 -2.380740E+000 -2.676280E+001 -2.840354E+001
