!Created: 07-29-2019 at 10:54:31
!Mini-Circuits
!S2P DATA File Format
!Type: RF CHOKE
!Port 1: RF; Port 2: RF AND DC IN
!TEST CONDITIONS: Z:50 OHM SYSTEM, INPUT POWER = -10dBm, TEMP:25°C
!REMARKS: TESTED WITH 100 mA CURRENT; FULL 2 PORT CALIBRATION OF THE SYSTEM; FIXTURE THRU LINE LOSS NORMALIZED VIA DATA/MEMORY FUNCTION; FIXTURE RETURN LOSS NORMALIZED VIA DATA-MEMORY FUNCTION.
!FIXTURE: 90-2-20-165
!PRESSING ARM: B85-TA-076
!MODEL: TCCH-80+
!S/N: U1_100mA
# MHZ S DB R 50
!Frequency          S11 dB    S11 DEG     S21 dB    S21 DEG     S12 dB    S12 DEG     S22 dB    S22 DEG
  10.0000     -1.216195E+001  1.216053E+002 -9.656374E-001  1.347785E+001 -9.628338E-001  1.342678E+001 -1.212138E+001  1.198395E+002
  20.0000     -1.669570E+001  1.233803E+002 -7.003396E-001  7.496317E+000 -6.994062E-001  7.487661E+000 -1.662708E+001  1.226570E+002
  30.0000     -1.893420E+001  1.266442E+002 -6.116030E-001  5.397109E+000 -6.108410E-001  5.385238E+000 -1.890887E+001  1.262037E+002
  40.0000     -2.037275E+001  1.284580E+002 -5.597267E-001  4.299369E+000 -5.595667E-001  4.295955E+000 -2.035911E+001  1.284223E+002
  50.0000     -2.154417E+001  1.298747E+002 -5.179616E-001  3.608971E+000 -5.283176E-001  3.582723E+000 -2.144943E+001  1.302056E+002
  60.0000     -2.233326E+001  1.310748E+002 -4.951027E-001  3.166187E+000 -4.944873E-001  3.162466E+000 -2.225206E+001  1.311098E+002
  70.0000     -2.296971E+001  1.320557E+002 -4.726611E-001  2.803637E+000 -4.722733E-001  2.805745E+000 -2.294189E+001  1.321725E+002
  80.0000     -2.351115E+001  1.324336E+002 -4.556351E-001  2.520502E+000 -4.537198E-001  2.518728E+000 -2.350535E+001  1.329243E+002
  90.0000     -2.406741E+001  1.328218E+002 -4.407949E-001  2.280087E+000 -4.395466E-001  2.276761E+000 -2.402439E+001  1.335802E+002
 100.0000     -2.453643E+001  1.336568E+002 -4.286723E-001  2.077336E+000 -4.273144E-001  2.076345E+000 -2.448505E+001  1.342682E+002
 120.0000     -2.521798E+001  1.346892E+002 -4.103481E-001  1.747176E+000 -4.093661E-001  1.743253E+000 -2.522991E+001  1.358314E+002
 140.0000     -2.582172E+001  1.359256E+002 -3.982549E-001  1.483894E+000 -3.961963E-001  1.487670E+000 -2.579383E+001  1.370914E+002
 160.0000     -2.617617E+001  1.368668E+002 -3.906982E-001  1.275828E+000 -3.899889E-001  1.276086E+000 -2.621040E+001  1.382918E+002
 180.0000     -2.654421E+001  1.374529E+002 -3.867152E-001  1.106437E+000 -3.849171E-001  1.109161E+000 -2.650681E+001  1.389884E+002
 200.0000     -2.674738E+001  1.377022E+002 -3.825773E-001  9.688648E-001 -3.808711E-001  9.679044E-001 -2.673996E+001  1.394972E+002
 220.0000     -2.695341E+001  1.376809E+002 -3.808492E-001  8.540295E-001 -3.788386E-001  8.573424E-001 -2.691249E+001  1.395164E+002
 240.0000     -2.701332E+001  1.373382E+002 -3.788269E-001  7.551117E-001 -3.774489E-001  7.575367E-001 -2.709004E+001  1.393170E+002
 260.0000     -2.711132E+001  1.366254E+002 -3.769476E-001  6.684053E-001 -3.761972E-001  6.698672E-001 -2.722976E+001  1.388714E+002
 280.0000     -2.714810E+001  1.359738E+002 -3.769665E-001  5.922226E-001 -3.757066E-001  5.971705E-001 -2.734194E+001  1.382439E+002
 300.0000     -2.721852E+001  1.350548E+002 -3.763219E-001  5.269068E-001 -3.744484E-001  5.321656E-001 -2.740799E+001  1.377137E+002
 320.0000     -2.725885E+001  1.341803E+002 -3.749997E-001  4.733098E-001 -3.735217E-001  4.756018E-001 -2.745774E+001  1.369635E+002
 340.0000     -2.731045E+001  1.329960E+002 -3.740741E-001  4.140690E-001 -3.731146E-001  4.225053E-001 -2.752895E+001  1.362345E+002
 360.0000     -2.732170E+001  1.319595E+002 -3.733799E-001  3.726835E-001 -3.718049E-001  3.740099E-001 -2.760539E+001  1.353097E+002
 380.0000     -2.735999E+001  1.304737E+002 -3.721908E-001  3.236170E-001 -3.709496E-001  3.317316E-001 -2.768498E+001  1.342561E+002
 400.0000     -2.739330E+001  1.291832E+002 -3.716726E-001  2.788492E-001 -3.693750E-001  2.879229E-001 -2.775033E+001  1.330129E+002
 420.0000     -2.743664E+001  1.275291E+002 -3.697273E-001  2.389944E-001 -3.686260E-001  2.487318E-001 -2.782920E+001  1.319311E+002
 440.0000     -2.747989E+001  1.262752E+002 -3.695817E-001  2.023541E-001 -3.677366E-001  2.101380E-001 -2.788998E+001  1.308769E+002
 460.0000     -2.749861E+001  1.248245E+002 -3.680214E-001  1.601588E-001 -3.662361E-001  1.755659E-001 -2.795921E+001  1.296111E+002
 480.0000     -2.751735E+001  1.235090E+002 -3.677689E-001  1.266292E-001 -3.654766E-001  1.338915E-001 -2.801184E+001  1.283118E+002
 500.0000     -2.754217E+001  1.218904E+002 -3.664257E-001  8.898140E-002 -3.646342E-001  9.729414E-002 -2.802354E+001  1.268792E+002
 520.0000     -2.760488E+001  1.204748E+002 -3.663648E-001  5.412268E-002 -3.637395E-001  6.489558E-002 -2.800553E+001  1.255790E+002
 540.0000     -2.763013E+001  1.190957E+002 -3.661785E-001  2.114374E-002 -3.638475E-001  3.052323E-002 -2.798214E+001  1.244627E+002
 560.0000     -2.764167E+001  1.176645E+002 -3.650564E-001 -1.029441E-002 -3.634735E-001  7.723934E-004 -2.799173E+001  1.235082E+002
 580.0000     -2.762829E+001  1.162523E+002 -3.649217E-001 -3.911313E-002 -3.629012E-001 -2.953111E-002 -2.803610E+001  1.224619E+002
 600.0000     -2.758801E+001  1.145472E+002 -3.648896E-001 -5.732797E-002 -3.627669E-001 -4.931533E-002 -2.810870E+001  1.208812E+002
 620.0000     -2.762648E+001  1.125512E+002 -3.621347E-001 -8.633178E-002 -3.598763E-001 -6.941884E-002 -2.822448E+001  1.194009E+002
 640.0000     -2.769409E+001  1.110336E+002 -3.606408E-001 -1.163585E-001 -3.579441E-001 -1.065998E-001 -2.827082E+001  1.183780E+002
 660.0000     -2.771185E+001  1.097485E+002 -3.586891E-001 -1.513090E-001 -3.565545E-001 -1.381582E-001 -2.828942E+001  1.174805E+002
 680.0000     -2.772536E+001  1.083965E+002 -3.572750E-001 -1.785709E-001 -3.544668E-001 -1.697751E-001 -2.835790E+001  1.164940E+002
 700.0000     -2.770863E+001  1.069624E+002 -3.565806E-001 -2.179663E-001 -3.541396E-001 -2.073169E-001 -2.845474E+001  1.155070E+002
 720.0000     -2.770981E+001  1.053408E+002 -3.561153E-001 -2.489378E-001 -3.532269E-001 -2.397091E-001 -2.853598E+001  1.141663E+002
 740.0000     -2.769236E+001  1.035996E+002 -3.548466E-001 -2.843912E-001 -3.530092E-001 -2.721156E-001 -2.857234E+001  1.126226E+002
 760.0000     -2.769980E+001  1.019033E+002 -3.552782E-001 -3.186410E-001 -3.526954E-001 -3.073226E-001 -2.857158E+001  1.113001E+002
 780.0000     -2.768041E+001  1.004452E+002 -3.549704E-001 -3.490212E-001 -3.530376E-001 -3.359797E-001 -2.856936E+001  1.103473E+002
 800.0000     -2.766317E+001  9.900363E+001 -3.548474E-001 -3.787374E-001 -3.520694E-001 -3.648852E-001 -2.857883E+001  1.094779E+002
 820.0000     -2.762531E+001  9.755285E+001 -3.542087E-001 -4.098905E-001 -3.524215E-001 -3.959720E-001 -2.862114E+001  1.083171E+002
 840.0000     -2.761389E+001  9.584298E+001 -3.544704E-001 -4.446170E-001 -3.516978E-001 -4.286955E-001 -2.865666E+001  1.069227E+002
 860.0000     -2.760022E+001  9.423726E+001 -3.546061E-001 -4.771154E-001 -3.514976E-001 -4.653542E-001 -2.863825E+001  1.055098E+002
 880.0000     -2.758989E+001  9.250374E+001 -3.552197E-001 -5.090543E-001 -3.524149E-001 -4.961438E-001 -2.860896E+001  1.043120E+002
 900.0000     -2.755445E+001  9.104782E+001 -3.550020E-001 -5.418922E-001 -3.523873E-001 -5.241237E-001 -2.859739E+001  1.033581E+002
 920.0000     -2.750574E+001  8.940131E+001 -3.548732E-001 -5.682495E-001 -3.523770E-001 -5.540692E-001 -2.865166E+001  1.024646E+002
 940.0000     -2.745151E+001  8.771716E+001 -3.556266E-001 -5.942650E-001 -3.529429E-001 -5.857170E-001 -2.868413E+001  1.014419E+002
 960.0000     -2.741760E+001  8.586268E+001 -3.560308E-001 -6.294618E-001 -3.529058E-001 -6.171085E-001 -2.867617E+001  1.000098E+002
 980.0000     -2.740025E+001  8.430723E+001 -3.575254E-001 -6.577533E-001 -3.533908E-001 -6.476176E-001 -2.862945E+001  9.869402E+001
1000.0000     -2.735943E+001  8.271094E+001 -3.573782E-001 -6.874719E-001 -3.544158E-001 -6.784568E-001 -2.859723E+001  9.766527E+001
1020.0000     -2.730066E+001  8.106979E+001 -3.585952E-001 -7.140355E-001 -3.557259E-001 -7.072695E-001 -2.859665E+001  9.681419E+001
1040.0000     -2.723793E+001  7.922500E+001 -3.596242E-001 -7.393213E-001 -3.558626E-001 -7.321041E-001 -2.863143E+001  9.577102E+001
1060.0000     -2.718304E+001  7.734196E+001 -3.599205E-001 -7.706559E-001 -3.569993E-001 -7.628827E-001 -2.868289E+001  9.435028E+001
1080.0000     -2.713573E+001  7.541905E+001 -3.610191E-001 -8.049527E-001 -3.577645E-001 -7.960157E-001 -2.867854E+001  9.282554E+001
1100.0000     -2.709985E+001  7.367325E+001 -3.626913E-001 -8.375290E-001 -3.592508E-001 -8.248158E-001 -2.860525E+001  9.129470E+001
1120.0000     -2.706039E+001  7.195200E+001 -3.640135E-001 -8.575145E-001 -3.603734E-001 -8.499003E-001 -2.854078E+001  9.012646E+001
1140.0000     -2.702983E+001  7.013963E+001 -3.650050E-001 -8.853256E-001 -3.615412E-001 -8.727156E-001 -2.851379E+001  8.903761E+001
1160.0000     -2.696836E+001  6.832912E+001 -3.658971E-001 -9.161555E-001 -3.624036E-001 -9.051595E-001 -2.852437E+001  8.786147E+001
1180.0000     -2.691126E+001  6.636189E+001 -3.676602E-001 -9.404967E-001 -3.632884E-001 -9.309619E-001 -2.850026E+001  8.649377E+001
1200.0000     -2.684916E+001  6.450101E+001 -3.695160E-001 -9.722736E-001 -3.653598E-001 -9.598505E-001 -2.844392E+001  8.494232E+001
1220.0000     -2.679565E+001  6.271484E+001 -3.710332E-001 -9.988202E-001 -3.672543E-001 -9.867659E-001 -2.836750E+001  8.368957E+001
1240.0000     -2.672994E+001  6.094692E+001 -3.727823E-001 -1.026589E+000 -3.684858E-001 -1.016389E+000 -2.833444E+001  8.280249E+001
1260.0000     -2.666537E+001  5.893532E+001 -3.752165E-001 -1.048255E+000 -3.707553E-001 -1.036219E+000 -2.832403E+001  8.165887E+001
1280.0000     -2.660687E+001  5.685705E+001 -3.768964E-001 -1.075439E+000 -3.725130E-001 -1.063007E+000 -2.836508E+001  8.011481E+001
1300.0000     -2.657602E+001  5.475463E+001 -3.796155E-001 -1.100375E+000 -3.743477E-001 -1.086924E+000 -2.836523E+001  7.856634E+001
1320.0000     -2.652079E+001  5.293892E+001 -3.809670E-001 -1.123506E+000 -3.759865E-001 -1.113293E+000 -2.828171E+001  7.702317E+001
1340.0000     -2.646588E+001  5.101540E+001 -3.841030E-001 -1.151321E+000 -3.795850E-001 -1.135716E+000 -2.818558E+001  7.572171E+001
1360.0000     -2.639807E+001  4.914898E+001 -3.862213E-001 -1.162947E+000 -3.813294E-001 -1.149252E+000 -2.813485E+001  7.465692E+001
1380.0000     -2.632964E+001  4.696298E+001 -3.879935E-001 -1.183323E+000 -3.827888E-001 -1.175289E+000 -2.814233E+001  7.331098E+001
1400.0000     -2.628680E+001  4.476744E+001 -3.904341E-001 -1.205818E+000 -3.851736E-001 -1.196471E+000 -2.813584E+001  7.171181E+001
1420.0000     -2.623569E+001  4.283025E+001 -3.917774E-001 -1.227543E+000 -3.869153E-001 -1.221471E+000 -2.808553E+001  6.998016E+001
1440.0000     -2.617268E+001  4.084584E+001 -3.949398E-001 -1.256816E+000 -3.898101E-001 -1.247057E+000 -2.796200E+001  6.825564E+001
1460.0000     -2.611001E+001  3.881821E+001 -3.976465E-001 -1.274495E+000 -3.929601E-001 -1.264344E+000 -2.787092E+001  6.693331E+001
1480.0000     -2.604959E+001  3.674716E+001 -3.998778E-001 -1.288025E+000 -3.950994E-001 -1.281576E+000 -2.783454E+001  6.571844E+001
1500.0000     -2.596339E+001  3.444691E+001 -4.025900E-001 -1.316044E+000 -3.975315E-001 -1.303593E+000 -2.782099E+001  6.433627E+001
1520.0000     -2.591537E+001  3.214443E+001 -4.053334E-001 -1.331383E+000 -4.003569E-001 -1.317642E+000 -2.781605E+001  6.257634E+001
1540.0000     -2.588498E+001  3.002444E+001 -4.089693E-001 -1.345712E+000 -4.030095E-001 -1.335296E+000 -2.776948E+001  6.070406E+001
1560.0000     -2.584575E+001  2.808665E+001 -4.108607E-001 -1.368860E+000 -4.051083E-001 -1.360470E+000 -2.768085E+001  5.924854E+001
1580.0000     -2.575248E+001  2.598414E+001 -4.155600E-001 -1.388842E+000 -4.098434E-001 -1.375852E+000 -2.758544E+001  5.793676E+001
1600.0000     -2.568965E+001  2.357525E+001 -4.195966E-001 -1.393171E+000 -4.139550E-001 -1.379741E+000 -2.758237E+001  5.660604E+001
1620.0000     -2.563861E+001  2.104996E+001 -4.215476E-001 -1.399307E+000 -4.155042E-001 -1.386711E+000 -2.761657E+001  5.499975E+001
1640.0000     -2.561631E+001  1.876501E+001 -4.230611E-001 -1.420020E+000 -4.164287E-001 -1.411425E+000 -2.761359E+001  5.326524E+001
1660.0000     -2.557483E+001  1.649695E+001 -4.290914E-001 -1.438738E+000 -4.220027E-001 -1.433220E+000 -2.751646E+001  5.125826E+001
1680.0000     -2.553356E+001  1.422856E+001 -4.335639E-001 -1.439076E+000 -4.270288E-001 -1.433776E+000 -2.738917E+001  4.946497E+001
1700.0000     -2.549522E+001  1.185673E+001 -4.360999E-001 -1.434798E+000 -4.293462E-001 -1.429524E+000 -2.733429E+001  4.793391E+001
1720.0000     -2.545388E+001  9.730816E+000 -4.384421E-001 -1.463280E+000 -4.311815E-001 -1.451714E+000 -2.728642E+001  4.688220E+001
1740.0000     -2.538083E+001  7.277609E+000 -4.428322E-001 -1.463324E+000 -4.360239E-001 -1.458646E+000 -2.722195E+001  4.484561E+001
1760.0000     -2.535835E+001  4.714087E+000 -4.479582E-001 -1.461323E+000 -4.411561E-001 -1.455951E+000 -2.717847E+001  4.259001E+001
1780.0000     -2.534435E+001  2.373192E+000 -4.496886E-001 -1.457818E+000 -4.422440E-001 -1.452640E+000 -2.712296E+001  4.049585E+001
1800.0000     -2.528200E+001  1.756162E-001 -4.535267E-001 -1.479209E+000 -4.463860E-001 -1.477507E+000 -2.698391E+001  3.929966E+001
1820.0000     -2.520257E+001 -2.472644E+000 -4.605447E-001 -1.471720E+000 -4.529120E-001 -1.472429E+000 -2.688958E+001  3.754889E+001
1840.0000     -2.516349E+001 -5.419539E+000 -4.642642E-001 -1.450844E+000 -4.566132E-001 -1.454232E+000 -2.691522E+001  3.556719E+001
1860.0000     -2.518877E+001 -7.996943E+000 -4.641694E-001 -1.442932E+000 -4.564885E-001 -1.439334E+000 -2.698167E+001  3.352189E+001
1880.0000     -2.514575E+001 -1.033699E+001 -4.704030E-001 -1.474203E+000 -4.624596E-001 -1.471688E+000 -2.686710E+001  3.160106E+001
1900.0000     -2.511526E+001 -1.302003E+001 -4.778599E-001 -1.447790E+000 -4.704446E-001 -1.455162E+000 -2.671801E+001  2.896418E+001
1920.0000     -2.511567E+001 -1.588798E+001 -4.836784E-001 -1.408644E+000 -4.752701E-001 -1.411892E+000 -2.665806E+001  2.668238E+001
1940.0000     -2.516625E+001 -1.838964E+001 -4.822362E-001 -1.377208E+000 -4.747285E-001 -1.385485E+000 -2.672142E+001  2.519648E+001
1960.0000     -2.506929E+001 -2.084797E+001 -4.891025E-001 -1.384871E+000 -4.806851E-001 -1.389717E+000 -2.663525E+001  2.366130E+001
1980.0000     -2.503529E+001 -2.422119E+001 -4.949564E-001 -1.342462E+000 -4.865666E-001 -1.347522E+000 -2.659324E+001  2.052461E+001
2000.0000     -2.511120E+001 -2.744398E+001 -4.978942E-001 -1.281534E+000 -4.891325E-001 -1.287945E+000 -2.659929E+001  1.727938E+001
2020.0000     -2.521224E+001 -2.969885E+001 -4.946772E-001 -1.265438E+000 -4.856147E-001 -1.277855E+000 -2.660947E+001  1.541899E+001
2040.0000     -2.511984E+001 -3.256068E+001 -5.046473E-001 -1.248675E+000 -4.957100E-001 -1.260399E+000 -2.637522E+001  1.334732E+001
2060.0000     -2.516068E+001 -3.641530E+001 -5.100411E-001 -1.161558E+000 -5.005830E-001 -1.174104E+000 -2.637499E+001  1.028121E+001
2080.0000     -2.533127E+001 -4.003997E+001 -5.059125E-001 -1.059556E+000 -4.964279E-001 -1.078741E+000 -2.655331E+001  7.077437E+000
2100.0000     -2.549049E+001 -4.237621E+001 -5.001129E-001 -1.046205E+000 -4.906104E-001 -1.067586E+000 -2.669933E+001  5.040571E+000
2120.0000     -2.547707E+001 -4.604296E+001 -5.091632E-001 -9.758937E-001 -4.999041E-001 -9.997521E-001 -2.654992E+001  1.378687E+000
2140.0000     -2.570481E+001 -5.028196E+001 -5.073629E-001 -8.340417E-001 -4.973910E-001 -8.638014E-001 -2.663507E+001 -2.990376E+000
2160.0000     -2.610631E+001 -5.373523E+001 -4.910257E-001 -7.134891E-001 -4.816121E-001 -7.451022E-001 -2.696947E+001 -6.278156E+000
2180.0000     -2.636094E+001 -5.573958E+001 -4.804565E-001 -7.032925E-001 -4.712182E-001 -7.393178E-001 -2.722013E+001 -7.704252E+000
2200.0000     -2.659606E+001 -5.992744E+001 -4.766023E-001 -5.712808E-001 -4.677601E-001 -6.123486E-001 -2.734764E+001 -1.259950E+001
2220.0000     -2.724788E+001 -6.369023E+001 -4.502845E-001 -4.351003E-001 -4.431408E-001 -4.794185E-001 -2.783952E+001 -1.810957E+001
2240.0000     -2.801791E+001 -6.472327E+001 -4.175220E-001 -4.212636E-001 -4.114420E-001 -4.679388E-001 -2.849162E+001 -2.072322E+001
2260.0000     -2.842569E+001 -6.502615E+001 -4.030965E-001 -4.477372E-001 -3.969386E-001 -4.966233E-001 -2.870719E+001 -2.173605E+001
2280.0000     -2.915825E+001 -6.659435E+001 -3.759851E-001 -3.756959E-001 -3.702932E-001 -4.226057E-001 -2.933377E+001 -2.564703E+001
2300.0000     -2.999915E+001 -6.420634E+001 -3.376265E-001 -4.451883E-001 -3.325132E-001 -4.950764E-001 -3.059669E+001 -2.600201E+001
2320.0000     -3.024971E+001 -5.960331E+001 -3.130115E-001 -6.140211E-001 -3.091118E-001 -6.543337E-001 -3.145256E+001 -2.329564E+001
2340.0000     -3.034464E+001 -5.743088E+001 -3.003289E-001 -7.238833E-001 -2.964485E-001 -7.632434E-001 -3.183932E+001 -2.230669E+001
2360.0000     -3.047688E+001 -5.305211E+001 -2.808167E-001 -8.480687E-001 -2.778388E-001 -8.845455E-001 -3.237043E+001 -1.974746E+001
2380.0000     -3.006036E+001 -4.897272E+001 -2.671647E-001 -1.036878E+000 -2.636331E-001 -1.069100E+000 -3.262897E+001 -1.387386E+001
2400.0000     -2.944788E+001 -4.701427E+001 -2.631500E-001 -1.220137E+000 -2.601152E-001 -1.248164E+000 -3.250716E+001 -7.033628E+000
2420.0000     -2.882195E+001 -4.734910E+001 -2.658457E-001 -1.368746E+000 -2.623179E-001 -1.396915E+000 -3.218268E+001 -3.275328E+000
2440.0000     -2.839482E+001 -4.842906E+001 -2.683707E-001 -1.487595E+000 -2.657972E-001 -1.511369E+000 -3.201445E+001 -2.160863E+000
2460.0000     -2.796570E+001 -4.918196E+001 -2.708788E-001 -1.605104E+000 -2.674027E-001 -1.634737E+000 -3.172647E+001 -8.665703E-001
2480.0000     -2.745264E+001 -5.072104E+001 -2.773662E-001 -1.739268E+000 -2.740529E-001 -1.759361E+000 -3.111770E+001 -4.962667E-001
2500.0000     -2.706834E+001 -5.346035E+001 -2.904152E-001 -1.822993E+000 -2.865055E-001 -1.845196E+000 -3.053962E+001 -1.161702E+000
2520.0000     -2.682289E+001 -5.565504E+001 -2.953426E-001 -1.862083E+000 -2.916237E-001 -1.882710E+000 -3.034049E+001 -1.915479E+000
2540.0000     -2.655641E+001 -5.800388E+001 -3.001205E-001 -1.942797E+000 -2.958707E-001 -1.964793E+000 -3.018743E+001 -2.000011E+000
2560.0000     -2.628908E+001 -6.049618E+001 -3.097562E-001 -2.010355E+000 -3.042358E-001 -2.031049E+000 -2.988179E+001 -3.554209E+000
2580.0000     -2.606693E+001 -6.323066E+001 -3.186353E-001 -2.039950E+000 -3.127730E-001 -2.063902E+000 -2.947592E+001 -6.462125E+000
2600.0000     -2.595701E+001 -6.560255E+001 -3.232225E-001 -2.061089E+000 -3.176534E-001 -2.080653E+000 -2.923235E+001 -8.491563E+000
2620.0000     -2.570553E+001 -6.781888E+001 -3.266159E-001 -2.085027E+000 -3.206893E-001 -2.111501E+000 -2.889412E+001 -8.692480E+000
2640.0000     -2.546552E+001 -7.129055E+001 -3.279791E-001 -2.116859E+000 -3.226534E-001 -2.143272E+000 -2.860624E+001 -9.228306E+000
2660.0000     -2.543819E+001 -7.480280E+001 -3.298206E-001 -2.157524E+000 -3.241548E-001 -2.179543E+000 -2.840873E+001 -1.147323E+001
2680.0000     -2.539508E+001 -7.738840E+001 -3.283399E-001 -2.193379E+000 -3.221806E-001 -2.219375E+000 -2.833697E+001 -1.401185E+001
2700.0000     -2.541594E+001 -8.022137E+001 -3.245507E-001 -2.293085E+000 -3.184836E-001 -2.321859E+000 -2.794190E+001 -1.715804E+001
2720.0000     -2.547830E+001 -8.159991E+001 -3.410813E-001 -2.415882E+000 -3.346491E-001 -2.443058E+000 -2.782585E+001 -2.123431E+001
2740.0000     -2.531293E+001 -8.349665E+001 -3.535192E-001 -2.412232E+000 -3.475111E-001 -2.442533E+000 -2.791289E+001 -2.296862E+001
2760.0000     -2.526555E+001 -8.581828E+001 -3.576679E-001 -2.437529E+000 -3.515794E-001 -2.468160E+000 -2.805918E+001 -2.442765E+001
