!Created: 07-29-2019 at 10:54:08
!Mini-Circuits
!S2P DATA File Format
!Type: RF CHOKE
!Port 1: RF; Port 2: RF AND DC IN
!TEST CONDITIONS: Z:50 OHM SYSTEM, INPUT POWER = -10dBm, TEMP:25°C
!REMARKS: TESTED WITH 0 mA CURRENT; FULL 2 PORT CALIBRATION OF THE SYSTEM; FIXTURE THRU LINE LOSS NORMALIZED VIA DATA/MEMORY FUNCTION; FIXTURE RETURN LOSS NORMALIZED VIA DATA-MEMORY FUNCTION.
!FIXTURE: 90-2-20-165
!PRESSING ARM: B85-TA-076
!MODEL: TCCH-80+
!S/N: U1_0mA
# MHZ S DB R 50
!Frequency          S11 dB    S11 DEG     S21 dB    S21 DEG     S12 dB    S12 DEG     S22 dB    S22 DEG
  10.0000     -1.593157E+001  1.247472E+002 -7.511658E-001  8.119411E+000 -7.456467E-001  8.147800E+000 -1.592532E+001  1.233203E+002
  20.0000     -1.977811E+001  1.304722E+002 -6.009409E-001  4.717649E+000 -5.996550E-001  4.706602E+000 -1.965888E+001  1.298910E+002
  30.0000     -2.149237E+001  1.342392E+002 -5.360983E-001  3.521875E+000 -5.367958E-001  3.513932E+000 -2.145792E+001  1.336441E+002
  40.0000     -2.265828E+001  1.356363E+002 -4.919991E-001  2.868984E+000 -4.925107E-001  2.868726E+000 -2.266616E+001  1.355834E+002
  50.0000     -2.370638E+001  1.369860E+002 -4.538783E-001  2.427893E+000 -4.685735E-001  2.516453E+000 -2.351598E+001  1.369640E+002
  60.0000     -2.434718E+001  1.377694E+002 -4.352006E-001  2.156621E+000 -4.353592E-001  2.153742E+000 -2.425708E+001  1.378876E+002
  70.0000     -2.490117E+001  1.386701E+002 -4.154535E-001  1.913825E+000 -4.154222E-001  1.916141E+000 -2.486667E+001  1.387219E+002
  80.0000     -2.537800E+001  1.389744E+002 -4.008345E-001  1.717543E+000 -3.996013E-001  1.711902E+000 -2.537782E+001  1.395100E+002
  90.0000     -2.587579E+001  1.394701E+002 -3.882388E-001  1.543520E+000 -3.879354E-001  1.547525E+000 -2.582562E+001  1.402692E+002
 100.0000     -2.627823E+001  1.404167E+002 -3.779966E-001  1.396671E+000 -3.771071E-001  1.398509E+000 -2.622324E+001  1.410380E+002
 120.0000     -2.684724E+001  1.415654E+002 -3.632653E-001  1.154397E+000 -3.630793E-001  1.152349E+000 -2.685944E+001  1.426778E+002
 140.0000     -2.734271E+001  1.430599E+002 -3.544336E-001  9.444741E-001 -3.538314E-001  9.546565E-001 -2.731495E+001  1.442572E+002
 160.0000     -2.760799E+001  1.439856E+002 -3.486877E-001  7.890671E-001 -3.484720E-001  7.891342E-001 -2.763059E+001  1.454979E+002
 180.0000     -2.788080E+001  1.447676E+002 -3.463468E-001  6.534935E-001 -3.455325E-001  6.548570E-001 -2.783773E+001  1.464244E+002
 200.0000     -2.800679E+001  1.451192E+002 -3.434124E-001  5.462940E-001 -3.435192E-001  5.409390E-001 -2.798018E+001  1.469491E+002
 220.0000     -2.812457E+001  1.451668E+002 -3.431108E-001  4.470963E-001 -3.426704E-001  4.487458E-001 -2.810885E+001  1.470580E+002
 240.0000     -2.811792E+001  1.447836E+002 -3.428870E-001  3.645192E-001 -3.425940E-001  3.673647E-001 -2.821530E+001  1.468672E+002
 260.0000     -2.815055E+001  1.440513E+002 -3.426227E-001  2.953164E-001 -3.430274E-001  2.956757E-001 -2.830001E+001  1.464101E+002
 280.0000     -2.813056E+001  1.433345E+002 -3.433025E-001  2.274611E-001 -3.436030E-001  2.283024E-001 -2.834304E+001  1.459316E+002
 300.0000     -2.814732E+001  1.425141E+002 -3.441634E-001  1.720991E-001 -3.438195E-001  1.713245E-001 -2.834541E+001  1.453794E+002
 320.0000     -2.812888E+001  1.416670E+002 -3.445366E-001  1.257186E-001 -3.440022E-001  1.244124E-001 -2.833805E+001  1.447902E+002
 340.0000     -2.812321E+001  1.405350E+002 -3.446555E-001  7.309421E-002 -3.449436E-001  7.909907E-002 -2.834920E+001  1.440542E+002
 360.0000     -2.808258E+001  1.393991E+002 -3.450918E-001  3.643175E-002 -3.447973E-001  3.453879E-002 -2.838284E+001  1.431617E+002
 380.0000     -2.806168E+001  1.378890E+002 -3.456322E-001 -6.778398E-003 -3.451328E-001 -3.862355E-003 -2.840992E+001  1.421140E+002
 400.0000     -2.804874E+001  1.365307E+002 -3.459005E-001 -4.553278E-002 -3.453942E-001 -4.405044E-002 -2.842887E+001  1.409424E+002
 420.0000     -2.805969E+001  1.349700E+002 -3.459365E-001 -8.122350E-002 -3.458386E-001 -7.785462E-002 -2.844227E+001  1.398320E+002
 440.0000     -2.804968E+001  1.336859E+002 -3.465414E-001 -1.150675E-001 -3.466915E-001 -1.101270E-001 -2.846177E+001  1.387966E+002
 460.0000     -2.802941E+001  1.322020E+002 -3.467093E-001 -1.508919E-001 -3.458072E-001 -1.402450E-001 -2.847857E+001  1.375878E+002
 480.0000     -2.800021E+001  1.307918E+002 -3.471195E-001 -1.811885E-001 -3.463249E-001 -1.763423E-001 -2.849276E+001  1.362040E+002
 500.0000     -2.798956E+001  1.291544E+002 -3.475034E-001 -2.146671E-001 -3.466344E-001 -2.086165E-001 -2.845869E+001  1.346922E+002
 520.0000     -2.800814E+001  1.277700E+002 -3.486263E-001 -2.432642E-001 -3.478755E-001 -2.392170E-001 -2.839784E+001  1.332643E+002
 540.0000     -2.799065E+001  1.263143E+002 -3.495972E-001 -2.737489E-001 -3.489542E-001 -2.730035E-001 -2.832714E+001  1.320579E+002
 560.0000     -2.796346E+001  1.248066E+002 -3.497484E-001 -2.969123E-001 -3.496086E-001 -2.916340E-001 -2.829354E+001  1.310444E+002
 580.0000     -2.791550E+001  1.232284E+002 -3.506407E-001 -3.211001E-001 -3.501116E-001 -3.201225E-001 -2.829516E+001  1.298975E+002
 600.0000     -2.784402E+001  1.213533E+002 -3.519158E-001 -3.393680E-001 -3.514691E-001 -3.331289E-001 -2.833074E+001  1.282147E+002
 620.0000     -2.786053E+001  1.193777E+002 -3.497128E-001 -3.573129E-001 -3.486694E-001 -3.492817E-001 -2.843015E+001  1.267615E+002
 640.0000     -2.789048E+001  1.178544E+002 -3.490834E-001 -3.841358E-001 -3.478680E-001 -3.805580E-001 -2.842451E+001  1.256781E+002
 660.0000     -2.787658E+001  1.164473E+002 -3.481776E-001 -4.195229E-001 -3.471490E-001 -4.105309E-001 -2.840988E+001  1.246825E+002
 680.0000     -2.786118E+001  1.150210E+002 -3.483002E-001 -4.437757E-001 -3.467695E-001 -4.375409E-001 -2.843967E+001  1.236661E+002
 700.0000     -2.781045E+001  1.134750E+002 -3.476233E-001 -4.769553E-001 -3.469659E-001 -4.692706E-001 -2.849649E+001  1.225706E+002
 720.0000     -2.778254E+001  1.116913E+002 -3.482781E-001 -5.035691E-001 -3.468457E-001 -5.015610E-001 -2.854836E+001  1.211469E+002
 740.0000     -2.774603E+001  1.098788E+002 -3.479633E-001 -5.346290E-001 -3.472443E-001 -5.278007E-001 -2.855854E+001  1.195769E+002
 760.0000     -2.773259E+001  1.081388E+002 -3.485982E-001 -5.642461E-001 -3.476270E-001 -5.573790E-001 -2.852978E+001  1.181303E+002
 780.0000     -2.769002E+001  1.065831E+002 -3.493057E-001 -5.918276E-001 -3.482458E-001 -5.850814E-001 -2.849623E+001  1.170636E+002
 800.0000     -2.764462E+001  1.049866E+002 -3.499310E-001 -6.157559E-001 -3.484055E-001 -6.098518E-001 -2.847669E+001  1.160153E+002
 820.0000     -2.758556E+001  1.033348E+002 -3.500455E-001 -6.456713E-001 -3.487275E-001 -6.394284E-001 -2.849091E+001  1.147546E+002
 840.0000     -2.755547E+001  1.015757E+002 -3.508658E-001 -6.753530E-001 -3.493218E-001 -6.654534E-001 -2.850028E+001  1.132468E+002
 860.0000     -2.752148E+001  9.988537E+001 -3.519220E-001 -7.054614E-001 -3.506154E-001 -6.992179E-001 -2.846627E+001  1.117073E+002
 880.0000     -2.749889E+001  9.811821E+001 -3.526017E-001 -7.310709E-001 -3.517775E-001 -7.262237E-001 -2.841481E+001  1.103868E+002
 900.0000     -2.744479E+001  9.648867E+001 -3.533268E-001 -7.580167E-001 -3.523992E-001 -7.480714E-001 -2.838739E+001  1.092679E+002
 920.0000     -2.737315E+001  9.467863E+001 -3.537622E-001 -7.814662E-001 -3.528418E-001 -7.759078E-001 -2.840443E+001  1.082532E+002
 940.0000     -2.730839E+001  9.283828E+001 -3.545497E-001 -8.065689E-001 -3.537947E-001 -8.035190E-001 -2.841717E+001  1.070662E+002
 960.0000     -2.726027E+001  9.096597E+001 -3.558000E-001 -8.351477E-001 -3.541746E-001 -8.320656E-001 -2.838893E+001  1.055804E+002
 980.0000     -2.722746E+001  8.926234E+001 -3.579209E-001 -8.619584E-001 -3.558107E-001 -8.604386E-001 -2.832727E+001  1.041188E+002
1000.0000     -2.717697E+001  8.762864E+001 -3.585295E-001 -8.878461E-001 -3.570891E-001 -8.866323E-001 -2.827456E+001  1.029583E+002
1020.0000     -2.709667E+001  8.579823E+001 -3.602786E-001 -9.138747E-001 -3.586118E-001 -9.131129E-001 -2.825417E+001  1.019491E+002
1040.0000     -2.702864E+001  8.381803E+001 -3.616121E-001 -9.379696E-001 -3.594619E-001 -9.364328E-001 -2.827256E+001  1.007612E+002
1060.0000     -2.696209E+001  8.184674E+001 -3.620878E-001 -9.645295E-001 -3.611278E-001 -9.599537E-001 -2.830067E+001  9.923183E+001
1080.0000     -2.690421E+001  7.986866E+001 -3.632912E-001 -9.969725E-001 -3.615893E-001 -9.898940E-001 -2.829429E+001  9.760684E+001
1100.0000     -2.686507E+001  7.801394E+001 -3.662277E-001 -1.023047E+000 -3.641308E-001 -1.018425E+000 -2.820847E+001  9.599352E+001
1120.0000     -2.681470E+001  7.621487E+001 -3.681848E-001 -1.041599E+000 -3.657919E-001 -1.038483E+000 -2.813317E+001  9.460862E+001
1140.0000     -2.676305E+001  7.425567E+001 -3.696049E-001 -1.068439E+000 -3.667696E-001 -1.059644E+000 -2.809871E+001  9.337107E+001
1160.0000     -2.670157E+001  7.227807E+001 -3.707171E-001 -1.093292E+000 -3.679287E-001 -1.086698E+000 -2.809474E+001  9.205289E+001
1180.0000     -2.664242E+001  7.027592E+001 -3.727044E-001 -1.116412E+000 -3.697462E-001 -1.115635E+000 -2.805939E+001  9.055823E+001
1200.0000     -2.657195E+001  6.837419E+001 -3.751707E-001 -1.146333E+000 -3.725723E-001 -1.143774E+000 -2.799516E+001  8.888068E+001
1220.0000     -2.650819E+001  6.645483E+001 -3.771854E-001 -1.167218E+000 -3.743717E-001 -1.167329E+000 -2.791176E+001  8.749391E+001
1240.0000     -2.643847E+001  6.456304E+001 -3.793394E-001 -1.194677E+000 -3.770243E-001 -1.192842E+000 -2.787230E+001  8.642213E+001
1260.0000     -2.636482E+001  6.245975E+001 -3.818997E-001 -1.213485E+000 -3.794214E-001 -1.213584E+000 -2.785344E+001  8.511998E+001
1280.0000     -2.630525E+001  6.029395E+001 -3.839836E-001 -1.235088E+000 -3.816634E-001 -1.231820E+000 -2.788391E+001  8.350341E+001
1300.0000     -2.627527E+001  5.814049E+001 -3.869805E-001 -1.258379E+000 -3.841169E-001 -1.252639E+000 -2.787348E+001  8.185399E+001
1320.0000     -2.621457E+001  5.628266E+001 -3.894439E-001 -1.281388E+000 -3.864791E-001 -1.275329E+000 -2.778450E+001  8.019199E+001
1340.0000     -2.614524E+001  5.426448E+001 -3.925506E-001 -1.301667E+000 -3.902256E-001 -1.293300E+000 -2.768820E+001  7.873698E+001
1360.0000     -2.607411E+001  5.219721E+001 -3.956224E-001 -1.311272E+000 -3.926573E-001 -1.304805E+000 -2.763547E+001  7.755331E+001
1380.0000     -2.600503E+001  4.999159E+001 -3.972440E-001 -1.331631E+000 -3.936508E-001 -1.326965E+000 -2.763040E+001  7.608889E+001
1400.0000     -2.595240E+001  4.777617E+001 -3.996356E-001 -1.347832E+000 -3.966144E-001 -1.345176E+000 -2.762683E+001  7.440011E+001
1420.0000     -2.589956E+001  4.566719E+001 -4.017878E-001 -1.369760E+000 -3.985694E-001 -1.367040E+000 -2.758146E+001  7.254791E+001
1440.0000     -2.584323E+001  4.362961E+001 -4.052893E-001 -1.397399E+000 -4.015676E-001 -1.389962E+000 -2.745789E+001  7.076464E+001
1460.0000     -2.577450E+001  4.157256E+001 -4.083762E-001 -1.410833E+000 -4.052054E-001 -1.406846E+000 -2.735587E+001  6.923633E+001
1480.0000     -2.570131E+001  3.932501E+001 -4.108551E-001 -1.422417E+000 -4.077546E-001 -1.419707E+000 -2.732575E+001  6.782594E+001
1500.0000     -2.562300E+001  3.700569E+001 -4.142140E-001 -1.445153E+000 -4.102256E-001 -1.439674E+000 -2.731259E+001  6.643150E+001
1520.0000     -2.557408E+001  3.465464E+001 -4.179378E-001 -1.455926E+000 -4.141008E-001 -1.453435E+000 -2.729578E+001  6.460316E+001
1540.0000     -2.553166E+001  3.247802E+001 -4.214742E-001 -1.468080E+000 -4.171467E-001 -1.468255E+000 -2.725177E+001  6.258005E+001
1560.0000     -2.548589E+001  3.039971E+001 -4.232978E-001 -1.490427E+000 -4.195679E-001 -1.490435E+000 -2.717356E+001  6.098596E+001
1580.0000     -2.540334E+001  2.817808E+001 -4.286193E-001 -1.508460E+000 -4.248027E-001 -1.507518E+000 -2.707084E+001  5.961897E+001
1600.0000     -2.534279E+001  2.576098E+001 -4.333124E-001 -1.510468E+000 -4.300127E-001 -1.509726E+000 -2.705695E+001  5.812671E+001
1620.0000     -2.529031E+001  2.318987E+001 -4.363205E-001 -1.508348E+000 -4.320295E-001 -1.511399E+000 -2.709515E+001  5.631870E+001
1640.0000     -2.527173E+001  2.085152E+001 -4.374210E-001 -1.528705E+000 -4.341043E-001 -1.535262E+000 -2.709838E+001  5.454728E+001
1660.0000     -2.522867E+001  1.856712E+001 -4.441500E-001 -1.544290E+000 -4.402282E-001 -1.549275E+000 -2.700087E+001  5.251230E+001
1680.0000     -2.516754E+001  1.623249E+001 -4.491146E-001 -1.540350E+000 -4.457051E-001 -1.542706E+000 -2.687138E+001  5.064112E+001
1700.0000     -2.513795E+001  1.377134E+001 -4.526043E-001 -1.532120E+000 -4.480883E-001 -1.535094E+000 -2.681402E+001  4.896636E+001
1720.0000     -2.508973E+001  1.160208E+001 -4.540287E-001 -1.554507E+000 -4.503533E-001 -1.550609E+000 -2.678440E+001  4.781293E+001
1740.0000     -2.501438E+001  9.109074E+000 -4.589616E-001 -1.555436E+000 -4.556033E-001 -1.553149E+000 -2.671918E+001  4.573691E+001
1760.0000     -2.498308E+001  6.424539E+000 -4.648574E-001 -1.547286E+000 -4.606600E-001 -1.547443E+000 -2.667434E+001  4.332612E+001
1780.0000     -2.497698E+001  3.945782E+000 -4.667084E-001 -1.542573E+000 -4.623034E-001 -1.536452E+000 -2.663166E+001  4.114150E+001
1800.0000     -2.490886E+001  1.747382E+000 -4.710945E-001 -1.561082E+000 -4.670807E-001 -1.561161E+000 -2.648908E+001  3.986275E+001
1820.0000     -2.483051E+001 -9.867823E-001 -4.790186E-001 -1.551429E+000 -4.738749E-001 -1.552827E+000 -2.639276E+001  3.801643E+001
1840.0000     -2.479677E+001 -3.970031E+000 -4.837931E-001 -1.525512E+000 -4.781334E-001 -1.528673E+000 -2.641440E+001  3.590840E+001
1860.0000     -2.482834E+001 -6.697257E+000 -4.839894E-001 -1.511663E+000 -4.781240E-001 -1.510051E+000 -2.649092E+001  3.372862E+001
1880.0000     -2.478487E+001 -8.946486E+000 -4.902443E-001 -1.539920E+000 -4.848168E-001 -1.542039E+000 -2.638304E+001  3.179248E+001
1900.0000     -2.474656E+001 -1.173056E+001 -4.988411E-001 -1.511338E+000 -4.937310E-001 -1.517234E+000 -2.623421E+001  2.906668E+001
1920.0000     -2.474197E+001 -1.467411E+001 -5.050679E-001 -1.462923E+000 -4.994960E-001 -1.469925E+000 -2.617499E+001  2.677278E+001
1940.0000     -2.480456E+001 -1.725609E+001 -5.044463E-001 -1.426256E+000 -4.986123E-001 -1.433819E+000 -2.624177E+001  2.517834E+001
1960.0000     -2.470289E+001 -1.971375E+001 -5.107623E-001 -1.428630E+000 -5.044774E-001 -1.440781E+000 -2.615738E+001  2.351015E+001
1980.0000     -2.466542E+001 -2.312919E+001 -5.180759E-001 -1.375296E+000 -5.111446E-001 -1.392451E+000 -2.611613E+001  2.026406E+001
2000.0000     -2.473265E+001 -2.646997E+001 -5.208473E-001 -1.310496E+000 -5.142799E-001 -1.325659E+000 -2.612490E+001  1.695207E+001
2020.0000     -2.484088E+001 -2.881577E+001 -5.170742E-001 -1.286234E+000 -5.110118E-001 -1.302295E+000 -2.614928E+001  1.499152E+001
2040.0000     -2.474384E+001 -3.168901E+001 -5.278688E-001 -1.266663E+000 -5.221611E-001 -1.284844E+000 -2.591715E+001  1.289030E+001
2060.0000     -2.477975E+001 -3.565472E+001 -5.336785E-001 -1.168567E+000 -5.274039E-001 -1.183287E+000 -2.591046E+001  9.667265E+000
2080.0000     -2.496355E+001 -3.937628E+001 -5.295489E-001 -1.054504E+000 -5.238011E-001 -1.076213E+000 -2.610175E+001  6.248202E+000
2100.0000     -2.511911E+001 -4.173234E+001 -5.237363E-001 -1.036438E+000 -5.177058E-001 -1.058178E+000 -2.624803E+001  4.074678E+000
2120.0000     -2.509870E+001 -4.552540E+001 -5.326955E-001 -9.563733E-001 -5.276842E-001 -9.770241E-001 -2.609210E+001  3.550003E-001
2140.0000     -2.533945E+001 -4.988716E+001 -5.311219E-001 -8.033010E-001 -5.250887E-001 -8.254463E-001 -2.617833E+001 -4.103209E+000
2160.0000     -2.575269E+001 -5.334731E+001 -5.135264E-001 -6.665394E-001 -5.075507E-001 -6.929927E-001 -2.652659E+001 -7.618154E+000
2180.0000     -2.600968E+001 -5.542052E+001 -5.020234E-001 -6.509678E-001 -4.958487E-001 -6.802667E-001 -2.679625E+001 -9.168702E+000
2200.0000     -2.624533E+001 -5.967672E+001 -4.976045E-001 -5.088983E-001 -4.916460E-001 -5.403833E-001 -2.691993E+001 -1.417806E+001
2220.0000     -2.690988E+001 -6.350970E+001 -4.698662E-001 -3.627631E-001 -4.650077E-001 -3.921023E-001 -2.741685E+001 -1.985923E+001
2240.0000     -2.768328E+001 -6.454323E+001 -4.354055E-001 -3.456761E-001 -4.312894E-001 -3.820049E-001 -2.808590E+001 -2.255940E+001
2260.0000     -2.808836E+001 -6.482343E+001 -4.203938E-001 -3.700144E-001 -4.158145E-001 -4.076936E-001 -2.833546E+001 -2.366787E+001
2280.0000     -2.881449E+001 -6.643713E+001 -3.921263E-001 -2.900445E-001 -3.873296E-001 -3.274159E-001 -2.897917E+001 -2.768663E+001
2300.0000     -2.965182E+001 -6.422959E+001 -3.511901E-001 -3.610309E-001 -3.476095E-001 -3.996655E-001 -3.026823E+001 -2.847427E+001
2320.0000     -2.991544E+001 -5.963716E+001 -3.256442E-001 -5.349538E-001 -3.229143E-001 -5.736114E-001 -3.117899E+001 -2.611506E+001
2340.0000     -2.999453E+001 -5.769625E+001 -3.133541E-001 -6.429741E-001 -3.099622E-001 -6.786585E-001 -3.158543E+001 -2.504456E+001
2360.0000     -3.014358E+001 -5.362733E+001 -2.924201E-001 -7.693300E-001 -2.898604E-001 -8.032308E-001 -3.216346E+001 -2.271437E+001
2380.0000     -2.976621E+001 -4.947629E+001 -2.772964E-001 -9.604473E-001 -2.752284E-001 -9.920694E-001 -3.250615E+001 -1.675898E+001
2400.0000     -2.917702E+001 -4.763868E+001 -2.732823E-001 -1.140278E+000 -2.711466E-001 -1.171742E+000 -3.248069E+001 -9.846241E+000
2420.0000     -2.858808E+001 -4.799152E+001 -2.762304E-001 -1.295853E+000 -2.729693E-001 -1.329435E+000 -3.221139E+001 -5.859176E+000
2440.0000     -2.817601E+001 -4.897808E+001 -2.775590E-001 -1.411517E+000 -2.766925E-001 -1.442746E+000 -3.204881E+001 -4.626879E+000
2460.0000     -2.776462E+001 -4.970377E+001 -2.795577E-001 -1.537524E+000 -2.780215E-001 -1.568941E+000 -3.178187E+001 -3.004506E+000
2480.0000     -2.726074E+001 -5.117452E+001 -2.865979E-001 -1.670584E+000 -2.842574E-001 -1.692097E+000 -3.115904E+001 -2.277197E+000
2500.0000     -2.688851E+001 -5.379262E+001 -2.986613E-001 -1.753807E+000 -2.969469E-001 -1.777932E+000 -3.057672E+001 -2.654773E+000
2520.0000     -2.665074E+001 -5.599342E+001 -3.037090E-001 -1.797163E+000 -3.021368E-001 -1.819825E+000 -3.039672E+001 -3.261221E+000
2540.0000     -2.638120E+001 -5.820482E+001 -3.082423E-001 -1.876735E+000 -3.062349E-001 -1.900633E+000 -3.024742E+001 -3.205694E+000
2560.0000     -2.611171E+001 -6.061610E+001 -3.179769E-001 -1.946265E+000 -3.143248E-001 -1.966197E+000 -2.992609E+001 -4.620631E+000
2580.0000     -2.589772E+001 -6.339356E+001 -3.266393E-001 -1.976610E+000 -3.231006E-001 -2.002167E+000 -2.951023E+001 -7.448079E+000
2600.0000     -2.577653E+001 -6.567625E+001 -3.310653E-001 -1.995083E+000 -3.280142E-001 -2.014709E+000 -2.926543E+001 -9.403361E+000
2620.0000     -2.552291E+001 -6.794353E+001 -3.343572E-001 -2.018817E+000 -3.310715E-001 -2.044464E+000 -2.894303E+001 -9.380800E+000
2640.0000     -2.529109E+001 -7.133143E+001 -3.362054E-001 -2.048088E+000 -3.322929E-001 -2.080118E+000 -2.865469E+001 -9.876940E+000
2660.0000     -2.524890E+001 -7.483247E+001 -3.367779E-001 -2.088791E+000 -3.339187E-001 -2.115485E+000 -2.844673E+001 -1.213442E+001
2680.0000     -2.520646E+001 -7.752435E+001 -3.353060E-001 -2.131042E+000 -3.317062E-001 -2.149541E+000 -2.837769E+001 -1.465473E+001
2700.0000     -2.523488E+001 -8.037898E+001 -3.316288E-001 -2.233027E+000 -3.280184E-001 -2.258358E+000 -2.795639E+001 -1.774735E+001
2720.0000     -2.530083E+001 -8.170037E+001 -3.485474E-001 -2.354672E+000 -3.440389E-001 -2.379533E+000 -2.784164E+001 -2.177400E+001
2740.0000     -2.513533E+001 -8.363280E+001 -3.606651E-001 -2.354801E+000 -3.573836E-001 -2.375113E+000 -2.792781E+001 -2.347515E+001
2760.0000     -2.509275E+001 -8.587388E+001 -3.657426E-001 -2.371660E+000 -3.613667E-001 -2.403679E+000 -2.808093E+001 -2.488096E+001
