!Mini-Circuits Laboratory
!S-Parameters, Port extension performed
!Model: PGA-103+
!Run / Lot / Date Code: N/A / BP170-001-01-101EV / 1210
!Fixture: TB-313
!Network Analyzer: PNA-X N5242A - 423 4 ports;  Serial number: 71013
!Date: 5/24/2012 at 5:22:02 PM
!S/N: Unit# 1
!Tested with: Vdd=4.75V at -45C
!
# Hz  S  dB  R  50
!Frequency    S11 dB        S11 Deg       S21 dB        S21 Deg       S12 dB        S12 Deg       S22 dB        S22 Deg       
10000000      -1.7612211    -23.7372608   30.0082493    167.7637024   -36.8105316   74.3259964    -6.5013299    -31.3803806   
20000000      -3.4428780    -35.6503792   28.8543205    161.6206970   -32.8382492   44.5788918    -8.4034042    -50.5979309   
30000000      -5.2104020    -42.0345612   27.9588699    159.6833954   -31.3188000   35.4785118    -10.7030001   -62.9440193   
40000000      -6.5478492    -45.2121086   27.3778706    158.9259033   -30.4817505   29.0450802    -12.7768002   -71.6379623   
50000000      -7.5090671    -47.0113983   27.0159397    158.4409027   -29.9328804   29.4528999    -14.4721098   -77.3766937   
60000000      -8.3717432    -47.6578217   26.6959496    158.0502014   -29.6818409   23.6750507    -16.2844105   -82.0873032   
70000000      -8.9042654    -48.8915710   26.4987202    157.1466980   -29.8929005   23.0249596    -17.5871906   -85.7181396   
80000000      -9.3672514    -49.7967186   26.3267593    156.1578979   -29.7119503   22.9583397    -19.0105400   -88.4273071   
90000000      -9.7438803    -50.9358711   26.1793709    155.0774994   -29.6639309   22.3485394    -20.3063908   -91.3277817   
100000000     -10.0346699   -52.1700211   26.0480404    153.8811951   -29.6362591   22.9375591    -21.5712299   -93.4311829   
110000000     -10.2556601   -53.2794914   25.9269791    152.5545044   -29.5251408   24.4649601    -22.8909206   -94.6174393   
120000000     -10.4631901   -54.7587585   25.8135796    151.3069000   -29.4116497   23.0021896    -24.0822506   -96.6569672   
130000000     -10.6922703   -56.7913704   25.6819801    149.9748993   -29.3522091   22.5733509    -25.2858009   -98.8276291   
140000000     -10.8210602   -58.1506615   25.5648994    148.6250000   -29.2953491   25.2837696    -26.6117191   -99.9491806   
150000000     -11.0419998   -59.9364700   25.4421902    147.3260040   -29.1144695   24.4848099    -27.9349098   -102.5362015  
160000000     -11.1791801   -61.4814301   25.3219509    145.9691925   -28.9066105   25.7722492    -29.5204906   -103.2362976  
170000000     -11.2993298   -63.1703796   25.2016506    144.6766968   -29.0567303   25.7444191    -31.0171394   -103.8528976  
180000000     -11.4447203   -64.9808502   25.0822201    143.3421021   -28.8560696   27.3327599    -32.7845116   -105.2111969  
190000000     -11.5466805   -67.0185165   24.9593906    142.0789032   -28.6977196   27.3146000    -34.6198311   -106.0152969  
200000000     -11.6971102   -68.9350128   24.8292103    140.7563934   -28.7788906   28.0194302    -37.4482994   -109.4358978  
210000000     -11.8232298   -70.7541275   24.6999893    139.5348969   -28.6866093   29.3045197    -40.7139206   -104.7058029  
220000000     -11.9265099   -72.8896027   24.5732002    138.2924042   -28.4742699   29.5032902    -44.3338318   -115.5309982  
230000000     -12.0211000   -74.6869965   24.4498901    137.1011963   -28.4241791   30.2003803    -56.2443085   -110.1902008  
240000000     -12.1634197   -76.5799789   24.3138905    135.9042969   -28.2986107   30.9872093    -51.5717392   81.4837265    
250000000     -12.2707701   -78.4530106   24.1898098    134.6887970   -28.2720509   32.4734688    -44.2061501   76.6783218    
260000000     -12.3663797   -80.5566635   24.0569706    133.5464935   -28.1681595   31.8851509    -40.1580811   75.3322830    
270000000     -12.4526901   -82.3191223   23.9252796    132.4205017   -27.8990192   32.6624603    -38.4036102   73.7407913    
280000000     -12.5543604   -84.3712921   23.7979507    131.3433990   -27.9332905   33.4440498    -36.7225800   68.8664169    
290000000     -12.6212502   -86.1439285   23.6675892    130.2328033   -27.7868900   34.1924896    -35.1871986   70.6812668    
300000000     -12.6545000   -87.8610077   23.5327206    129.1813965   -27.6905403   34.5653191    -34.5880394   67.0735779    
310000000     -12.7739496   -89.5882034   23.4116993    128.1651001   -27.6048603   35.3040009    -33.2238503   64.8095474    
320000000     -12.8244896   -91.3589478   23.2771702    127.1352005   -27.4606991   35.6083298    -32.7028809   63.0997505    
330000000     -12.8960304   -92.9676514   23.1474800    126.1536026   -27.4065495   36.5959282    -31.6655998   62.1952515    
340000000     -12.9809704   -94.5807190   23.0237904    125.1871033   -27.2727203   37.0927811    -31.0257893   60.9740906    
350000000     -12.9969101   -96.2188187   22.8922100    124.2436981   -27.1289291   36.8196602    -30.4965496   58.4094391    
360000000     -13.0893803   -97.7070007   22.7671299    123.3132019   -27.0803604   37.6575203    -30.0454998   58.1348801    
370000000     -13.1555300   -99.2346268   22.6422291    122.3961029   -26.9445591   38.7313995    -29.6838398   57.1522903    
380000000     -13.2204800   -100.5093002  22.5152702    121.5186996   -26.8226604   38.6991692    -29.1750603   55.1849594    
390000000     -13.2884903   -102.2500000  22.3894501    120.5912018   -26.6577492   39.6903381    -28.8716602   54.4890518    
400000000     -13.3582296   -103.4710007  22.2707806    119.7757034   -26.6057205   40.3248787    -28.5096607   53.7557983    
410000000     -13.4240904   -104.9931030  22.1422806    118.9366989   -26.4741192   40.2418289    -28.2402401   53.3057404    
420000000     -13.4312096   -106.3060989  22.0283394    118.1102982   -26.3659000   40.9977913    -27.9302807   51.2640915    
430000000     -13.5029001   -107.4571991  21.9061108    117.2953033   -26.2626305   41.5414581    -27.7301197   48.6938400    
440000000     -13.5689201   -108.9470978  21.7866306    116.4927979   -26.1504898   41.3566017    -27.5788002   48.6277199    
450000000     -13.6337996   -110.0709000  21.6708908    115.7270966   -26.0524693   41.4898186    -27.2758007   47.4062004    
460000000     -13.6820402   -111.5684967  21.5512009    114.9432983   -25.9103107   42.1199417    -27.2194099   46.1916313    
470000000     -13.7317305   -112.8516006  21.4326305    114.1986008   -25.8467007   42.4784088    -26.9851208   45.8961601    
480000000     -13.7792101   -114.1936035  21.3197708    113.4092026   -25.7255592   42.8259010    -26.7964191   45.0714302    
490000000     -13.8948698   -115.4714966  21.1939201    112.7221985   -25.6393108   43.4092102    -26.4730206   43.8498116    
500000000     -13.9935398   -117.0717010  21.0764599    111.9526978   -25.5007591   43.5307999    -26.2224102   43.4066505    
510000000     -14.0608101   -117.5496979  20.9605694    111.3322983   -25.4172306   44.0149117    -26.1842594   40.2061615    
520000000     -14.0465698   -118.7375031  20.8600502    110.6498032   -25.2935791   44.7683716    -26.0322094   39.1848412    
530000000     -14.0983000   -119.9189987  20.7520905    109.9373016   -25.2012405   44.7702293    -25.9527206   37.5467796    
540000000     -14.1357899   -121.0211029  20.6418495    109.2602997   -25.0988293   44.8116417    -25.9816608   37.2878799    
550000000     -14.1541300   -122.2766037  20.5311699    108.6276016   -24.9285908   45.0743790    -25.8312397   37.0471115    
560000000     -14.2113600   -123.5401001  20.4266109    107.9537964   -24.8966999   45.1622696    -25.8199692   36.0366707    
570000000     -14.2224102   -124.6363983  20.3165703    107.3074036   -24.7633991   45.5704002    -25.7339401   35.0798988    
580000000     -14.2516804   -125.8478012  20.2137604    106.6810989   -24.7004204   45.5415192    -25.5898304   34.6958199    
590000000     -14.2435303   -126.8186035  20.1089306    106.0469971   -24.5674896   45.8871994    -25.5789299   33.5998116    
600000000     -14.2917604   -127.8877029  20.0031605    105.4256973   -24.4354401   46.0416794    -25.4241505   32.5551605    
610000000     -14.2607498   -129.0222015  19.8968391    104.8076019   -24.3790493   46.2395706    -25.3940392   32.7054214    
620000000     -14.3177204   -129.8869934  19.7978191    104.2524033   -24.2837105   46.7858009    -25.1491508   32.2185097    
630000000     -14.3115501   -130.8462067  19.6947193    103.6389999   -24.1549892   46.4118690    -25.1184406   30.8032207    
640000000     -14.3088102   -131.8809052  19.5941105    103.0943985   -24.1326103   46.3192406    -25.0856991   30.8540096    
650000000     -14.3372002   -132.6410065  19.4968700    102.5064011   -23.9867191   46.7926292    -24.9826698   29.5180607    
660000000     -14.3446302   -133.6685944  19.3949509    101.9251022   -23.9181194   46.6323318    -24.8768005   28.6836605    
670000000     -14.3570004   -134.4947052  19.2997704    101.3643036   -23.7856598   47.0056686    -24.7899208   28.0384007    
680000000     -14.3558998   -135.3834991  19.1998405    100.8326035   -23.6758709   47.2993011    -24.6967793   27.8054199    
690000000     -14.3608799   -136.3477936  19.1059895    100.3038025   -23.6287899   47.3280907    -24.5202007   27.0049706    
700000000     -14.3920202   -137.0390930  19.0105896    99.7593994    -23.4993401   47.4923706    -24.5319099   26.8344498    
710000000     -14.3787699   -137.9044037  18.9137306    99.2050018    -23.4511299   47.7143707    -24.4285393   26.0818901    
720000000     -14.4121704   -138.6614075  18.8174896    98.6819763    -23.3490391   47.9580307    -24.3131905   26.3227196    
730000000     -14.4092903   -139.5668030  18.7292404    98.1816864    -23.2628403   47.8485489    -24.2987709   25.5504704    
740000000     -14.4571896   -140.5650940  18.6358395    97.6351166    -23.1728592   47.8817406    -24.2884407   25.1280594    
750000000     -14.4755001   -141.2870026  18.5424194    97.1760635    -23.1006603   48.1316299    -24.1964207   24.3465500    
760000000     -14.4835396   -142.0872040  18.4585209    96.6528168    -22.9985695   48.1099586    -24.0681896   23.5557995    
770000000     -14.5063801   -142.5646973  18.3642292    96.1798325    -22.9374809   48.4981689    -23.9361095   22.5508709    
780000000     -14.5078402   -143.3997955  18.2762508    95.6810837    -22.8229008   48.2972488    -23.9725704   22.3526592    
790000000     -14.5543900   -144.1286926  18.1824398    95.2428131    -22.7505608   48.6098709    -23.8408298   21.8226795    
800000000     -14.5672398   -144.6551056  18.1041603    94.7694168    -22.6016598   48.6390610    -23.8861809   21.1520805    
810000000     -14.5303202   -145.5328064  18.0188904    94.2660522    -22.5653305   48.6295700    -23.8949203   20.2869205    
820000000     -14.5544701   -146.4069977  17.9328308    93.8336868    -22.4677906   48.5644417    -23.9751606   20.3953705    
830000000     -14.5465403   -147.3733978  17.8501606    93.3172989    -22.3802109   48.8033600    -24.0460396   19.4910107    
840000000     -14.5593395   -148.1909943  17.7698097    92.8711929    -22.3594208   48.7395401    -24.0803108   19.3331509    
850000000     -14.5700302   -148.8946075  17.6773396    92.4251022    -22.2690907   48.8358192    -23.8524609   18.7418499    
860000000     -14.5317297   -149.4494019  17.6008091    91.9660416    -22.1293106   49.0467110    -23.9711800   17.4900799    
870000000     -14.5099001   -150.2292938  17.5194092    91.5151291    -22.0702000   48.7970695    -24.0282707   17.5439606    
880000000     -14.5239096   -150.8769989  17.4411201    91.0589066    -21.9826698   48.8655205    -24.0680103   17.4106197    
890000000     -14.5122404   -151.7109070  17.3549805    90.6122131    -21.9209309   48.9620094    -24.0433292   16.9934406    
900000000     -14.4928398   -152.6468048  17.2749100    90.1561508    -21.8356800   49.1445007    -24.1173592   16.9705009    
910000000     -14.4811201   -153.4766998  17.1964798    89.6907272    -21.7304096   48.7192612    -24.0501499   17.1244106    
920000000     -14.4772701   -153.8851013  17.1117992    89.3153687    -21.7019405   49.0892906    -24.0133991   15.8623695    
930000000     -14.5109901   -154.8836975  17.0372906    88.8602371    -21.6202202   48.9792213    -24.0778294   15.4470901    
940000000     -14.5410995   -155.6452026  16.9465904    88.4995499    -21.5540600   49.0846901    -23.8764191   14.4836798    
950000000     -14.5130501   -155.7500000  16.8812695    88.1133728    -21.4698296   49.0954514    -24.0173492   13.1004601    
960000000     -14.4772701   -156.3441010  16.8108692    87.6572876    -21.3961792   49.1442719    -24.1167297   13.4298496    
970000000     -14.5141296   -156.8916931  16.7310390    87.2568436    -21.2891502   49.0745506    -24.0882397   12.3508701    
980000000     -14.4915504   -157.5809937  16.6628208    86.8525925    -21.2318001   49.1806908    -24.1323795   12.0988197    
990000000     -14.4860802   -157.9407043  16.5868092    86.4174271    -21.1488991   49.2045403    -24.1334705   11.7758999    
1000000000    -14.4441099   -158.5612946  16.5136509    86.0510025    -21.0570793   48.9967804    -24.1315403   11.6666403    
1025000000    -14.4766197   -159.8865051  16.3360806    85.0389328    -20.8784008   48.9667511    -24.0544891   9.6489134     
1050000000    -14.4846897   -161.1271973  16.1626091    84.0767517    -20.7257309   49.1167183    -24.0160408   8.5194397     
1075000000    -14.4998503   -162.4248962  15.9897699    83.1028671    -20.5505104   48.8261604    -23.9505997   6.8492250     
1100000000    -14.5212603   -163.8862000  15.8238201    82.1226578    -20.3875294   48.6650009    -24.0128593   5.0436792     
1125000000    -14.5047102   -165.2543030  15.6553202    81.1907883    -20.2079201   48.6472511    -24.0463295   3.6538260     
1150000000    -14.4788704   -166.6056061  15.4970703    80.2519684    -20.0504398   48.4485703    -24.1245995   2.3612380     
1175000000    -14.4481201   -168.3246002  15.3266802    79.2994919    -19.8900204   48.2908897    -24.1140900   1.9515030     
1200000000    -14.5095797   -169.1840973  15.1653900    78.5198669    -19.7400894   48.4453201    -24.0721493   -0.8428842    
1225000000    -14.4116096   -170.3153992  15.0184298    77.5920334    -19.5752106   48.0129509    -24.1840305   -1.5282400    
1250000000    -14.3482504   -171.4058075  14.8634396    76.7286072    -19.4327106   47.8649101    -24.2599506   -2.2497370    
1275000000    -14.3127499   -172.3623962  14.7117596    75.8197098    -19.2677002   47.7657509    -24.4161797   -2.6332200    
1300000000    -14.2638302   -173.2342987  14.5695400    74.9990692    -19.1217098   47.5823288    -24.3039303   -3.7270460    
1325000000    -14.2371597   -174.2313995  14.4244404    74.1725311    -18.9845791   47.3700294    -24.3066006   -4.6676502    
1350000000    -14.2179298   -175.0554047  14.2903099    73.3176880    -18.8409901   47.1602516    -24.3071499   -6.2126679    
1375000000    -14.2389297   -175.7427979  14.1583405    72.5165634    -18.7151794   46.9988899    -24.3849792   -7.4918232    
1400000000    -14.2095299   -176.8273926  14.0225897    71.6827011    -18.5544300   46.4939117    -24.2810898   -9.4169369    
1425000000    -14.2111902   -177.7306061  13.8915300    70.8495636    -18.4139709   46.3030281    -24.3682194   -11.2669601   
1450000000    -14.2182198   -178.7911987  13.7558498    70.0157471    -18.2766895   45.9976883    -24.4120197   -13.3174295   
1475000000    -14.2483597   -179.5121002  13.6296196    69.2320175    -18.1599197   45.8213997    -24.5665398   -14.7706003   
1500000000    -14.2269897   179.5171967   13.5031300    68.4113464    -18.0246506   45.6516190    -24.4616394   -16.5557404   
1525000000    -14.1901398   178.5975952   13.3807297    67.6596985    -17.8888607   45.3031502    -24.5082397   -17.7313499   
1550000000    -14.1915798   177.4449005   13.2585096    66.8393707    -17.7647896   44.9800301    -24.4287491   -19.6559601   
1575000000    -14.1406202   176.6235046   13.1331196    66.0663605    -17.6364994   44.7323990    -24.4839592   -20.5240993   
1600000000    -14.1173601   176.0475006   13.0117197    65.2953262    -17.5408592   44.4668694    -24.4827003   -20.2562904   
1625000000    -14.0935402   175.0540924   12.8972998    64.5308380    -17.4174709   44.0990105    -24.3318691   -21.6501808   
1650000000    -14.0534096   174.6437073   12.7800503    63.7809601    -17.2919292   43.7931900    -24.3659706   -22.2736092   
1675000000    -14.0125198   173.8238983   12.6704702    63.0445404    -17.1656399   43.5295410    -24.2074909   -23.9991207   
1700000000    -14.0240097   173.4501953   12.5517902    62.3309517    -17.0716896   43.3817482    -24.1427193   -24.1501102   
1725000000    -14.0313301   172.7548065   12.4580698    61.5874405    -16.9458599   42.9876709    -24.0982208   -27.1082001   
1750000000    -14.0165396   172.4866028   12.3426104    60.7910805    -16.8395100   42.7761993    -24.1486092   -28.6382694   
1775000000    -14.0667400   171.4835968   12.2384100    60.0750809    -16.7232304   42.3747482    -23.9918499   -30.2710800   
1800000000    -14.0428696   170.8939972   12.1349001    59.3630409    -16.6193905   42.0004005    -23.9843807   -31.7885094   
1825000000    -14.0807896   169.9136963   12.0294199    58.6017494    -16.4909191   41.4774208    -23.9441795   -33.2098694   
1850000000    -14.0968800   169.2366943   11.9298897    57.8726006    -16.3955593   41.3374405    -23.9183407   -35.2877007   
1875000000    -14.1017704   168.5462952   11.8344002    57.1625404    -16.3153191   41.0646400    -23.6977901   -36.2058105   
1900000000    -14.1201096   167.8623962   11.7290096    56.4483490    -16.1920891   40.6276703    -23.7630291   -36.9326286   
1925000000    -14.1269999   166.9933929   11.6333399    55.7067719    -16.0968609   40.4621887    -23.6140499   -37.9820709   
1950000000    -14.0821695   166.4465027   11.5374498    54.9934311    -15.9987297   39.9798889    -23.5276508   -39.0279808   
1975000000    -14.0433998   166.1640015   11.4445601    54.3123817    -15.8930397   39.5403595    -23.3628006   -39.9638901   
2000000000    -14.0221395   165.7406006   11.3525295    53.5792694    -15.7982702   39.2248688    -23.2165108   -41.0443001   
2025000000    -14.0536499   165.6974945   11.2589397    52.9026108    -15.7021799   38.8676300    -23.0576191   -41.7619400   
2050000000    -14.0480099   165.4199982   11.1670904    52.1820984    -15.6031904   38.4817085    -22.8933697   -43.0126305   
2075000000    -14.1090698   164.7942963   11.0794497    51.5429306    -15.5099602   38.1040611    -22.6452808   -43.7483215   
2100000000    -14.1707802   164.4087067   10.9927797    50.8263016    -15.4253702   37.7950211    -22.5404701   -45.0364494   
2125000000    -14.1888199   164.2313995   10.9090204    50.1121788    -15.3125496   37.3568306    -22.4226494   -46.3375511   
2150000000    -14.2623100   163.2826996   10.8234301    49.4073792    -15.2266703   37.0234718    -22.3498898   -47.4126511   
2175000000    -14.2798595   162.5238037   10.7352200    48.6846390    -15.1444101   36.5170784    -22.4555302   -48.2927589   
2200000000    -14.2601900   161.8533936   10.6585903    48.0362015    -15.0447998   36.2811508    -22.2579899   -50.1589813   
2225000000    -14.2917805   160.9358063   10.5767097    47.3583908    -14.9778404   35.7477798    -22.2609997   -50.5155296   
2250000000    -14.2089701   160.5198975   10.4954004    46.6142502    -14.8888502   35.4450912    -22.0773392   -51.1659584   
2275000000    -14.2346897   159.8927002   10.4073296    45.9760704    -14.8104401   34.9734802    -22.0255795   -52.3322105   
2300000000    -14.2757998   159.7644043   10.3325396    45.3474998    -14.7358904   34.6623116    -21.8479500   -52.8486900   
