!Mini-Circuits Laboratory
!S-Parameters, Port extension performed
!Model: PGA-103+
!Run / Lot / Date Code: N/A / BP170-001-01-101EV / 1210
!Fixture: TB-313
!Network Analyzer: PNA-X N5242A - 423 4 ports;  Serial number: 71013
!Date: 5/24/2012 at 5:35:18 PM
!S/N: Unit# 1
!Tested with: Vdd=4.75V at 85C
!
# Hz  S  dB  R  50
!Frequency    S11 dB        S11 Deg       S21 dB        S21 Deg       S12 dB        S12 Deg       S22 dB        S22 Deg       
10000000      -1.8089150    -19.2957897   28.6289692    169.3930969   -35.2016487   71.5834427    -6.0084848    -23.3646297   
20000000      -3.3245771    -28.1723404   27.6350803    164.8833008   -32.7393684   42.1461906    -7.7531700    -37.2491608   
30000000      -4.6922312    -31.4799595   26.9633999    163.5574036   -31.4853001   31.5308704    -9.8018131    -42.6748390   
40000000      -5.5996928    -32.8079910   26.5606194    162.8112030   -30.6762199   29.2672997    -11.4138699   -43.8744698   
50000000      -6.2802191    -33.9574089   26.3161392    162.1181946   -29.8056602   26.3803997    -12.5757198   -43.5739784   
60000000      -6.7560439    -34.0003319   26.0912895    161.4705963   -30.1185608   21.7278805    -13.6818705   -42.3851204   
70000000      -7.0769081    -35.4156609   25.9557705    160.2975006   -30.0753994   23.1686592    -14.4786901   -41.7967415   
80000000      -7.3411989    -36.6054688   25.8278008    159.0364990   -29.9333096   22.7786293    -15.1306000   -40.4204788   
90000000      -7.5691118    -38.0945206   25.7145004    157.7270050   -29.8659096   22.4979897    -15.6959600   -39.2350502   
100000000     -7.7377839    -39.7075310   25.6090603    156.3271027   -29.6756401   23.2110996    -16.1333408   -38.1639290   
110000000     -7.8653750    -41.3654594   25.5048409    154.8399963   -29.7407093   23.9743004    -16.4736595   -36.9412994   
120000000     -8.0137444    -43.3450508   25.4062405    153.4161072   -29.7442398   23.7538605    -16.8775806   -36.2111702   
130000000     -8.1710777    -44.9501801   25.2854004    151.9602966   -29.5886707   25.4018192    -17.2064304   -35.6158409   
140000000     -8.2546558    -47.2187805   25.1777897    150.4806061   -29.3314800   25.0192108    -17.4092999   -34.7581711   
150000000     -8.4358883    -49.1934013   25.0621891    149.0601959   -29.2411995   26.3360405    -17.7845097   -33.8703194   
160000000     -8.5146875    -51.2236519   24.9461308    147.6192932   -29.1315308   26.1836891    -17.9973602   -33.3019295   
170000000     -8.6108875    -53.0411415   24.8281307    146.2303009   -29.0256100   28.1274109    -18.1080494   -32.4545517   
180000000     -8.7076664    -54.9642105   24.7101707    144.8356018   -29.0454807   28.0035591    -18.3198795   -31.9256992   
190000000     -8.8077745    -56.8374214   24.5885906    143.5056000   -28.8641796   28.5998592    -18.4305401   -31.3522797   
200000000     -8.9238749    -58.8299789   24.4594193    142.1356049   -28.9391193   29.4215508    -18.6312904   -31.0815506   
210000000     -9.0081778    -60.7241402   24.3287697    140.8544006   -28.5855904   30.3074398    -18.7396393   -30.3261795   
220000000     -9.1012526    -62.6037407   24.2038898    139.5859070   -28.4650002   30.6575603    -18.8772507   -30.7550392   
230000000     -9.1907759    -64.4454803   24.0815201    138.3486023   -28.4074497   31.6481209    -19.0072803   -30.1981792   
240000000     -9.3065691    -66.1300735   23.9458294    137.1194000   -28.3229904   32.1578293    -19.1331501   -29.3761292   
250000000     -9.3994846    -67.8234787   23.8200893    135.8800964   -28.2061596   32.7236404    -19.2014999   -29.1459503   
260000000     -9.4915915    -69.6805725   23.6876793    134.7265930   -28.0973892   33.6506310    -19.2809906   -28.5802402   
270000000     -9.6024046    -71.3105164   23.5561008    133.5684052   -28.0213604   34.2261314    -19.3510895   -28.5265293   
280000000     -9.6963482    -72.9361267   23.4299908    132.4871063   -27.9489994   34.7943001    -19.4365902   -28.3691406   
290000000     -9.7990665    -74.6256638   23.3003101    131.3491058   -27.7646999   34.8916588    -19.5668297   -28.4549198   
300000000     -9.8621483    -76.2917480   23.1660995    130.2926025   -27.6372509   35.7588310    -19.5255394   -28.6097603   
310000000     -9.9679708    -77.8866730   23.0456905    129.2442017   -27.5308704   36.5756302    -19.5945702   -28.3298397   
320000000     -10.0616102   -79.5451736   22.9124794    128.2055054   -27.4110203   36.9326096    -19.6791592   -28.3157806   
330000000     -10.1520796   -81.0611572   22.7815704    127.1962967   -27.3472500   37.8357010    -19.7339802   -28.2082100   
340000000     -10.2617197   -82.5474701   22.6562500    126.2080002   -27.2564793   38.3141594    -19.7802601   -27.5942898   
350000000     -10.3106699   -84.1060486   22.5246201    125.2654037   -27.1204109   38.4943810    -19.7827892   -27.5126591   
360000000     -10.4286699   -85.5541306   22.3990002    124.3233032   -27.0592709   39.1867790    -19.8201694   -27.2244091   
370000000     -10.5190401   -87.1184387   22.2718792    123.3684006   -26.8488693   39.5755692    -19.9197407   -27.5755692   
380000000     -10.5966101   -88.5738907   22.1411800    122.4842987   -26.7616005   39.8375511    -19.9069004   -26.9824696   
390000000     -10.6718302   -90.2540665   22.0144291    121.5494995   -26.6485500   40.3621788    -19.9880009   -26.9191895   
400000000     -10.7567301   -91.7188034   21.8962803    120.7039032   -26.5169506   41.0613098    -20.0550499   -26.1928005   
410000000     -10.8203697   -93.2175369   21.7636700    119.8523026   -26.5221291   41.3283310    -20.1812401   -26.2495899   
420000000     -10.8577204   -94.5806503   21.6489391    119.0175018   -26.4226398   41.5223312    -20.1674099   -26.1259899   
430000000     -10.9249601   -96.0903625   21.5228996    118.1865005   -26.3577309   42.0371208    -20.2094307   -25.2919693   
440000000     -10.9891300   -97.8544769   21.4059105    117.3249969   -26.1676903   42.5155907    -20.3608208   -25.0569992   
450000000     -11.1912203   -98.5055466   21.2510700    116.6067963   -26.0740604   43.5970383    -20.0601692   -23.2679405   
460000000     -11.1597404   -99.7582626   21.1408501    115.8864975   -25.9145508   43.3826218    -20.1391792   -24.6037598   
470000000     -11.2145205   -101.0992966  21.0231400    115.1578979   -25.8433094   43.5132484    -20.2392807   -24.1901398   
480000000     -11.2384501   -102.2510986  20.9056396    114.4166031   -25.7760792   44.4250908    -20.2362709   -23.6853199   
490000000     -11.2903204   -103.5317001  20.7854004    113.7211990   -25.6056995   44.3234901    -20.3082504   -23.4437599   
500000000     -11.3425999   -104.6568985  20.6700497    113.0055008   -25.5294209   44.5443192    -20.2839909   -23.1032791   
510000000     -11.3749800   -105.8309021  20.5560799    112.2633972   -25.3809509   45.0146294    -20.4206295   -22.9390907   
520000000     -11.3993101   -106.9356995  20.4417992    111.6284027   -25.3356304   45.3158188    -20.3490791   -22.4658508   
530000000     -11.4446697   -107.9187012  20.3319206    110.9372025   -25.2318802   45.4010201    -20.3203201   -22.2086697   
540000000     -11.5146503   -108.9382019  20.2168503    110.2798004   -25.0815105   45.9784698    -20.3826008   -22.5234509   
550000000     -11.5503702   -110.0307999  20.1044407    109.6663971   -25.0082798   45.8854103    -20.4257507   -21.9794292   
560000000     -11.6010303   -111.0598984  19.9986000    109.0106964   -24.9153404   46.3070908    -20.4124298   -21.8738594   
570000000     -11.6408100   -112.0847015  19.8840008    108.3923035   -24.7949104   46.7699089    -20.4454498   -22.1433296   
580000000     -11.6900301   -113.1380997  19.7805405    107.7761002   -24.7558994   46.8097801    -20.4638996   -21.8510094   
590000000     -11.7201300   -113.9847031  19.6732197    107.1724014   -24.6115799   46.9022484    -20.4546204   -22.3351498   
600000000     -11.7872400   -114.9225998  19.5667992    106.5670013   -24.5508308   47.5081482    -20.4417000   -22.1341801   
610000000     -11.8003798   -115.9917984  19.4580307    105.9812012   -24.4500999   47.6027908    -20.4771404   -22.7216606   
620000000     -11.8628302   -116.8735962  19.3568897    105.4308014   -24.3407001   47.7168617    -20.4756298   -22.0754108   
630000000     -11.9141998   -117.7820969  19.2524891    104.8513031   -24.2070007   48.0390511    -20.4817410   -22.8180199   
640000000     -11.9605198   -118.7875977  19.1509991    104.3164978   -24.1122398   47.9645882    -20.5671692   -22.9605503   
650000000     -12.0097103   -119.6486969  19.0515404    103.7453003   -24.0484409   48.5091095    -20.5228004   -23.2884102   
660000000     -12.0417995   -120.6529007  18.9510994    103.1874008   -23.9620304   48.7663383    -20.5136700   -23.6775303   
670000000     -12.1057997   -121.5875015  18.8518600    102.6274033   -23.8679695   48.8626595    -20.5511608   -23.8809204   
680000000     -12.1332302   -122.7204971  18.7517204    102.1035004   -23.7553196   49.1571503    -20.6175098   -24.0907898   
690000000     -12.1693897   -123.6567001  18.6546001    101.5794983   -23.6685295   49.0783310    -20.5842495   -23.9580708   
700000000     -12.2130404   -124.5780029  18.5588493    101.0430984   -23.5569706   49.3901901    -20.6387291   -24.6202202   
710000000     -12.2530899   -125.6597977  18.4573994    100.5119019   -23.4992504   49.1024399    -20.6733704   -24.7873497   
720000000     -12.3078699   -126.3893967  18.3593292    100.0195999   -23.4298992   49.5240402    -20.6319199   -24.6482906   
730000000     -12.3247204   -127.3897018  18.2661705    99.5014267    -23.3740292   49.7382202    -20.7326908   -24.6769695   
740000000     -12.3748398   -128.4851074  18.1689301    98.9809723    -23.2734299   49.9120789    -20.7150192   -25.0303707   
750000000     -12.4034100   -129.1965027  18.0747604    98.5855179    -23.1652393   49.9330292    -20.6072102   -25.4835300   
760000000     -12.4188204   -130.2194977  17.9876499    98.0557785    -23.0659904   50.1595497    -20.5842896   -25.3605309   
770000000     -12.4469805   -130.6858978  17.8889408    97.6131516    -23.0073891   50.2139282    -20.5575104   -25.6921005   
780000000     -12.4286203   -131.4940948  17.8026505    97.1499710    -22.8946705   50.3164597    -20.5874290   -25.8809795   
790000000     -12.4421597   -132.5270996  17.7078304    96.6714706    -22.8206501   50.2964401    -20.5855007   -25.7581501   
800000000     -12.4937897   -133.0325928  17.6136799    96.2287827    -22.7345505   50.5564804    -20.5774994   -26.0780201   
810000000     -12.4941902   -133.6347046  17.5270996    95.7970505    -22.6518497   50.7346497    -20.5355606   -26.3274002   
820000000     -12.4894600   -134.2355042  17.4407005    95.3896637    -22.5736809   50.6425209    -20.5692806   -26.5056705   
830000000     -12.5077801   -134.9992981  17.3575191    94.9149094    -22.5076408   50.8389397    -20.5593395   -26.4400997   
840000000     -12.4955597   -135.6177063  17.2754307    94.4743271    -22.4095097   50.9398193    -20.5603905   -26.6928005   
850000000     -12.4777203   -136.4748993  17.1861305    93.9601364    -22.3588104   50.6465302    -20.5071907   -26.0824299   
860000000     -12.5901804   -137.0059967  17.0799198    93.6277466    -22.3325100   51.2824211    -20.3435593   -25.4118309   
870000000     -12.6119900   -136.9306030  17.0077591    93.3098221    -22.1914101   51.2789383    -20.1886196   -26.4288502   
880000000     -12.6073599   -137.3972015  16.9344196    92.8647995    -22.1154308   51.3531685    -20.2058792   -26.6542702   
890000000     -12.6234703   -137.9358978  16.8442001    92.4406967    -22.0214100   51.2212601    -20.1965408   -26.5568600   
900000000     -12.6379604   -138.5225067  16.7655106    92.0376434    -21.9276295   51.4773102    -20.1751995   -26.6696796   
910000000     -12.6638603   -138.8526001  16.6919308    91.6466217    -21.8654709   51.5581589    -20.1455708   -26.8449097   
920000000     -12.6655397   -139.2713013  16.6079502    91.2442703    -21.8123703   51.3707695    -20.1148109   -27.0356503   
930000000     -12.7328300   -139.9868011  16.5349102    90.8367310    -21.7477398   51.6475601    -20.0791607   -27.1861191   
940000000     -12.7278099   -140.5599976  16.4546204    90.4427032    -21.6619892   51.6094093    -20.0500698   -26.9637508   
950000000     -12.7530403   -140.9472961  16.3769207    90.0617981    -21.5849495   51.7535286    -19.9718800   -27.2416801   
960000000     -12.7778101   -141.6217957  16.3032799    89.6636963    -21.4852505   51.7351494    -19.9916306   -27.3788605   
970000000     -12.8160000   -142.1788940  16.2233200    89.2606964    -21.4504910   51.7016716    -20.0139904   -27.7819309   
980000000     -12.8406601   -142.8990936  16.1509991    88.8883820    -21.3567696   51.7137413    -20.0062504   -27.9311790   
990000000     -12.8556805   -143.4434052  16.0750408    88.4849014    -21.3150501   51.6074104    -20.0325794   -27.9116592   
1000000000    -12.8614902   -144.0823059  15.9991102    88.1437378    -21.2380505   51.6576385    -20.0778904   -27.8078804   
1025000000    -12.9086800   -145.6318054  15.8193703    87.1838989    -21.0633507   51.7795105    -20.0457497   -28.3373108   
1050000000    -12.9220695   -147.1428070  15.6419802    86.2796021    -20.8869705   51.9186287    -20.1527901   -28.4739304   
1075000000    -12.9308901   -148.9013977  15.4585199    85.3362122    -20.6977291   51.7254486    -20.2001801   -28.5943203   
1100000000    -12.9460897   -150.1473999  15.2867899    84.4824905    -20.5016899   51.6240196    -20.2303295   -29.5881500   
1125000000    -12.9182396   -151.3412018  15.1155996    83.6377792    -20.3933506   52.0105705    -20.2941494   -29.8153591   
1150000000    -12.9197502   -152.4553986  14.9510098    82.8028870    -20.2071495   51.8272705    -20.3077602   -30.6521893   
1175000000    -12.9080601   -153.6110992  14.7901297    81.9700012    -20.0454998   51.7392197    -20.2837906   -31.5617409   
1200000000    -12.9437504   -154.5502930  14.6285496    81.1604080    -19.8848991   51.7831383    -20.2570896   -32.5644684   
1225000000    -12.9851103   -155.5066071  14.4762201    80.3501663    -19.7487297   51.5487404    -20.1535702   -33.2972603   
1250000000    -13.0231400   -156.5778046  14.3180504    79.5470428    -19.5775700   51.5127182    -20.1151009   -34.3657303   
1275000000    -13.0994797   -157.4458008  14.1660099    78.7308426    -19.4708996   51.4387894    -20.1049900   -35.2415695   
1300000000    -13.1216497   -158.5765991  14.0209799    77.9507370    -19.3010597   51.3938904    -19.9978409   -35.9390717   
1325000000    -13.1209402   -159.9147034  13.8779202    77.1488800    -19.1464005   51.2483902    -19.9924908   -36.5107994   
1350000000    -13.1574697   -161.0084076  13.7325296    76.3987122    -19.0298100   51.1956596    -19.9004803   -37.1536102   
1375000000    -13.1601295   -161.8668976  13.5940800    75.6650238    -18.9071808   50.8824692    -19.9525604   -37.4702988   
1400000000    -13.1243200   -162.9161987  13.4537296    74.9037781    -18.7428398   50.7816315    -19.8843307   -37.5778618   
1425000000    -13.0890303   -163.7042999  13.3164597    74.1543732    -18.6122494   50.6514091    -19.9353199   -37.8246918   
1450000000    -13.0589600   -164.3237000  13.1790705    73.4380188    -18.4939308   50.4828186    -19.9031792   -37.9944801   
1475000000    -13.0588503   -164.7570953  13.0492697    72.7339020    -18.3681107   50.3943291    -19.9541798   -38.2938995   
1500000000    -13.0383101   -165.4302979  12.9221401    72.0035019    -18.2462997   50.2833595    -19.9049892   -38.5180092   
1525000000    -13.0383501   -165.9055023  12.7997704    71.3451538    -18.0969391   50.2013283    -19.8730602   -38.9879608   
1550000000    -13.0707998   -166.8049927  12.6791496    70.6159973    -17.9818993   49.8278198    -19.8183899   -40.1061897   
1575000000    -13.1098099   -167.5572968  12.5572205    69.9069595    -17.8602695   49.8217506    -19.8031693   -40.7789383   
1600000000    -13.1280499   -168.1983032  12.4329500    69.2042465    -17.7566891   49.5631294    -19.8323097   -41.4288406   
1625000000    -13.1695204   -169.4069977  12.3200598    68.4970169    -17.6134701   49.4271088    -19.7342701   -42.7733307   
1650000000    -13.2102098   -170.3668060  12.1982803    67.8005981    -17.5110302   49.0308800    -19.8045902   -43.6193314   
1675000000    -13.2238503   -171.5312958  12.0838203    67.1216888    -17.3871803   48.8342209    -19.7184105   -44.7988892   
1700000000    -13.2201004   -172.1045990  11.9655600    66.4838333    -17.3124409   48.8099785    -19.7250710   -45.0122986   
1725000000    -13.2311296   -172.9561005  11.8610802    65.8004074    -17.1757507   48.4505806    -19.5966206   -46.3119583   
1750000000    -13.2012997   -173.5023956  11.7460804    65.1056290    -17.0576706   48.2371483    -19.6149807   -46.9760895   
1775000000    -13.2055302   -174.1643066  11.6362801    64.4703369    -16.9544697   48.0952492    -19.4425602   -47.4410896   
1800000000    -13.1728296   -174.4488983  11.5293303    63.8477592    -16.8360100   47.7478104    -19.4144192   -47.5978508   
1825000000    -13.2118301   -174.8764954  11.4244604    63.1816292    -16.7431297   47.5748596    -19.2836704   -48.0659904   
1850000000    -13.2513800   -175.1013947  11.3248301    62.5618401    -16.6483002   47.4003410    -19.1673908   -48.6035500   
1875000000    -13.2736998   -175.5140991  11.2287397    61.9142799    -16.5425491   47.2178917    -19.0732403   -48.9287415   
1900000000    -13.3255997   -175.9037018  11.1259499    61.2913818    -16.4557304   46.7878189    -19.0401192   -49.3025894   
1925000000    -13.3995199   -176.6493073  11.0301399    60.6153183    -16.3292007   46.6756706    -18.9797993   -50.0221100   
1950000000    -13.4224005   -177.5874023  10.9378700    59.9592094    -16.2328701   46.3560295    -18.9192009   -51.0576096   
1975000000    -13.4336205   -178.4696045  10.8382998    59.3371391    -16.1413803   45.9391594    -18.9665394   -51.5510788   
2000000000    -13.4384604   -179.3294983  10.7459402    58.6679001    -16.0567093   45.8231392    -18.9381504   -52.3804398   
2025000000    -13.4296303   179.7393036   10.6462898    58.0534096    -15.9682903   45.4300003    -18.9838791   -53.0628815   
2050000000    -13.3993196   179.0576019   10.5504198    57.4056892    -15.8733196   45.2166290    -18.9347801   -53.6092300   
2075000000    -13.3848896   177.9819946   10.4540005    56.8271484    -15.7769499   44.9078217    -18.9551105   -53.7278786   
2100000000    -13.3633404   177.6871948   10.3667402    56.2035217    -15.7070198   44.7470207    -18.8500500   -54.7040787   
2125000000    -13.3305702   177.7001038   10.2827101    55.5810890    -15.5787001   44.3423004    -18.7705994   -55.3937492   
2150000000    -13.3753204   177.1712952   10.1956596    54.9561691    -15.4993801   44.2036209    -18.7418499   -56.0417900   
2175000000    -13.3734303   176.9754944   10.1023703    54.3311195    -15.4285402   43.6665192    -18.7431698   -56.4426804   
2200000000    -13.4254704   176.6387939   10.0257702    53.7672615    -15.3107500   43.4163094    -18.4982204   -57.4992409   
2225000000    -13.5157900   176.0581055   9.9443331     53.1693115    -15.2419100   43.1638794    -18.4588203   -57.8783989   
2250000000    -13.5225897   175.4810944   9.8604622     52.5008698    -15.1617699   42.8913116    -18.3490906   -58.4684906   
2275000000    -13.5975904   174.9754028   9.7766714     51.9229012    -15.0913095   42.6225510    -18.2592297   -59.2501984   
2300000000    -13.7205601   174.4794006   9.6863613     51.4408112    -15.0183001   42.4403305    -18.2001705   -58.5756187   
