!Mini-Circuits Laboratory
!S-Parameters, Port extension performed
!Model: PGA-103+
!Run / Lot / Date Code: N/A / BP170-001-01-101EV / 1210
!Fixture: TB-313
!Network Analyzer: PNA-X N5242A - 423 4 ports;  Serial number: 71013
!Date: 5/23/2012 at 10:40:37 AM
!S/N: Unit# 1
!Tested with: VDD=3V AT +85C
!
# Hz  S  dB  R  50
!Frequency    S11 dB        S11 Deg       S21 dB        S21 Deg       S12 dB        S12 Deg       S22 dB        S22 Deg       
10000000      -1.5707700    -17.3353195   27.8825607    170.0424042   -35.0059319   70.3223190    -6.3142219    -22.0653496   
20000000      -2.9830761    -25.9435596   26.9769497    165.7344971   -32.2555313   44.4882202    -7.9302502    -35.7868195   
30000000      -4.2664371    -29.1726398   26.3485203    164.3379059   -31.0735207   34.5559502    -9.8592920    -41.2652588   
40000000      -5.1143651    -30.4098091   25.9684391    163.5025940   -30.5867901   29.9205799    -11.3778696   -43.0329704   
50000000      -5.6494370    -31.9599495   25.7373199    162.7651978   -29.5044899   28.0500507    -12.4294596   -43.2895393   
60000000      -6.1357760    -32.2778015   25.5193100    162.0749969   -30.0311394   22.9530106    -13.3824997   -42.9338303   
70000000      -6.4098401    -33.4338303   25.3930702    160.8842926   -29.7532501   24.2993202    -14.0855398   -42.9055786   
80000000      -6.6453500    -34.7957001   25.2704906    159.6143951   -29.6591396   24.3775291    -14.6832304   -42.5444794   
90000000      -6.8541341    -36.3906898   25.1628094    158.2929993   -29.5538292   24.5153999    -15.1700001   -42.2223892   
100000000     -7.0038562    -38.0998611   25.0632401    156.8878937   -29.3359699   24.8786297    -15.5560503   -42.2308311   
110000000     -7.1352248    -39.7920685   24.9606705    155.3872986   -29.4417095   26.2076092    -15.9197903   -42.0992889   
120000000     -7.2700729    -41.7966805   24.8672791    153.9851990   -29.3770504   24.8036194    -16.2491093   -42.2744904   
130000000     -7.3692021    -43.8833084   24.7541294    152.5196075   -28.9032898   25.6082592    -16.6031895   -42.5674095   
140000000     -7.4879599    -45.8261299   24.6497402    151.0511932   -29.0067291   27.4766293    -16.8266392   -42.8241386   
150000000     -7.6538458    -47.9956207   24.5403004    149.6224060   -28.7486095   28.3151493    -17.1515007   -43.2764397   
160000000     -7.7352972    -49.8726807   24.4265804    148.1905975   -28.6018391   28.4230595    -17.3495502   -43.9096909   
170000000     -7.8189788    -51.8890419   24.3125591    146.8202972   -28.6988792   29.3471298    -17.5693607   -43.9793282   
180000000     -7.9093790    -53.7893600   24.1976395    145.4152985   -28.4212704   29.9215393    -17.7219601   -44.5382118   
190000000     -8.0085821    -55.6819496   24.0800705    144.0904999   -28.2172604   31.2092991    -17.9108200   -44.8092194   
200000000     -8.1117878    -57.6944008   23.9525909    142.7232056   -28.2956104   31.3369999    -18.1005592   -45.3740501   
210000000     -8.2110081    -59.5982399   23.8288002    141.4537048   -28.1308899   32.0375710    -18.3042603   -45.6474190   
220000000     -8.2943687    -61.5123596   23.7082806    140.1856995   -27.9211807   32.7230797    -18.4626999   -46.8802681   
230000000     -8.3691254    -63.3889198   23.5872307    138.9579926   -27.7995701   33.6399193    -18.6351109   -47.0127411   
240000000     -8.4823914    -65.1718063   23.4545307    137.7115021   -27.6786995   33.5546417    -18.8359299   -47.7868004   
250000000     -8.5667725    -66.8445129   23.3333302    136.4781036   -27.5286694   34.4170303    -18.9829597   -48.0917397   
260000000     -8.6680088    -68.6970978   23.2059708    135.3190002   -27.4413891   35.2642517    -19.1096497   -48.7246208   
270000000     -8.7511797    -70.4563217   23.0766392    134.1605988   -27.3577194   35.5677910    -19.2656498   -49.3000793   
280000000     -8.8412218    -72.0564728   22.9543495    133.0765991   -27.2801094   36.4714394    -19.3756294   -49.8051910   
290000000     -8.9506769    -73.6570892   22.8272591    131.9333038   -27.0371799   37.2307892    -19.5294991   -50.6208191   
300000000     -9.0047445    -75.4264069   22.6980591    130.8789063   -26.9440804   37.3293419    -19.5561695   -51.4371490   
310000000     -9.1261463    -76.9814377   22.5797691    129.8419037   -26.8517895   37.9131203    -19.6684799   -51.5285797   
320000000     -9.2074766    -78.6097031   22.4489403    128.7946014   -26.7862492   38.6283684    -19.7849102   -52.7562790   
330000000     -9.2841749    -80.1971970   22.3229809    127.7774963   -26.6557903   38.9802208    -19.9687691   -52.9505081   
340000000     -9.3797789    -81.7840500   22.2007904    126.7938995   -26.5563107   39.4499893    -20.1139603   -53.1024399   
350000000     -9.4509659    -83.3403625   22.0702000    125.8358002   -26.3367901   39.4392815    -20.1832294   -53.5319214   
360000000     -9.5512304    -84.7851868   21.9486809    124.8743973   -26.2001591   40.4628601    -20.3165092   -53.8536797   
370000000     -9.6379108    -86.4448166   21.8250294    123.9290009   -26.1758194   40.7147789    -20.4213200   -54.5987892   
380000000     -9.7195559    -87.7425613   21.6983795    123.0341034   -26.0564194   40.7675705    -20.5737591   -54.5777206   
390000000     -9.7919645    -89.4983902   21.5712700    122.0840988   -25.8726597   41.5169411    -20.7274399   -55.2268600   
400000000     -9.8665428    -90.8344498   21.4554901    121.2372971   -25.8599205   41.7288704    -20.8760509   -55.3243599   
410000000     -9.9449158    -92.5353165   21.3267498    120.3707962   -25.7065907   42.0647202    -21.0698509   -55.9180794   
420000000     -9.9666281    -93.9358673   21.2134609    119.5266037   -25.5879593   42.7080002    -21.1806297   -55.9566002   
430000000     -10.0438995   -95.4138107   21.0900993    118.6912994   -25.5028992   42.8142700    -21.3701096   -56.4631691   
440000000     -10.0924501   -97.1979523   20.9748802    117.8160019   -25.4290295   43.1069183    -21.6097698   -56.9686089   
450000000     -10.2797804   -97.9625397   20.8200302    117.0876007   -25.2657909   44.1566391    -21.5629692   -53.4724808   
460000000     -10.2520304   -99.1757507   20.7145596    116.3621979   -25.1980495   43.7371292    -21.6449299   -55.4935799   
470000000     -10.2997599   -100.6050034  20.5979805    115.6318970   -25.1051807   44.4330406    -21.8727493   -55.8541183   
480000000     -10.3369799   -101.6501007  20.4812202    114.8724976   -24.9597092   44.6373291    -21.9563808   -55.7326889   
490000000     -10.3857899   -103.0481033  20.3619804    114.1669006   -24.8778305   44.7688904    -22.2011909   -55.9216499   
500000000     -10.4321699   -104.1855011  20.2505608    113.4479980   -24.7144604   45.4179916    -22.2515793   -55.9581909   
510000000     -10.4764795   -105.3823013  20.1366405    112.7093964   -24.6437206   45.2559700    -22.4603691   -56.1839905   
520000000     -10.5037603   -106.4794998  20.0246296    112.0468979   -24.4919891   45.7918015    -22.6109505   -55.7004585   
530000000     -10.5492601   -107.5885010  19.9145699    111.3555984   -24.4563904   46.0202484    -22.6364498   -55.2556114   
540000000     -10.6004105   -108.5955963  19.8024006    110.6945038   -24.3426800   46.0986710    -22.7493191   -56.3508987   
550000000     -10.6470499   -109.7035980  19.6904507    110.0793991   -24.2631798   46.5528984    -22.9348698   -56.0471611   
560000000     -10.6966600   -110.7751007  19.5848198    109.4097977   -24.1618099   46.5111198    -22.9853497   -56.6697388   
570000000     -10.7325096   -111.7773972  19.4725895    108.7778015   -23.9941196   46.8628616    -23.1124401   -56.8903198   
580000000     -10.7896605   -112.9256973  19.3707008    108.1490021   -23.8934803   47.0343018    -23.2083702   -56.9016113   
590000000     -10.8149700   -113.8383026  19.2643509    107.5481033   -23.8710308   47.1244812    -23.2733803   -57.8022003   
600000000     -10.8759899   -114.7860031  19.1570797    106.9344025   -23.7496204   47.5606499    -23.3132401   -57.7041016   
610000000     -10.9023304   -115.8384018  19.0506096    106.3332977   -23.6787300   47.7855606    -23.4492207   -58.3875809   
620000000     -10.9606104   -116.7923965  18.9495506    105.7777023   -23.5611191   47.9747581    -23.5774002   -58.0014496   
630000000     -11.0169897   -117.7248001  18.8479805    105.1874008   -23.4533501   48.0120811    -23.5310402   -59.0324211   
640000000     -11.0492496   -118.6580963  18.7489109    104.6533966   -23.3906097   48.1971283    -23.7291298   -59.6052208   
650000000     -11.0944405   -119.6490021  18.6499691    104.0731964   -23.2854099   48.2530098    -23.6444206   -59.9752083   
660000000     -11.1423998   -120.7195969  18.5484791    103.4981003   -23.2382908   48.6959686    -23.7467098   -60.5773201   
670000000     -11.2032900   -121.7069016  18.4513092    102.9393997   -23.0688705   48.6961403    -23.7451000   -61.2208405   
680000000     -11.2278996   -122.7080002  18.3522396    102.4049988   -23.0311909   48.8941803    -23.9361095   -61.8393517   
690000000     -11.2587605   -123.6650009  18.2557297    101.8777008   -22.9614105   48.8394890    -23.9699402   -61.7599106   
700000000     -11.3026600   -124.6812973  18.1570301    101.3318024   -22.8242397   49.2584190    -24.0432091   -62.1856308   
710000000     -11.3219099   -125.6928024  18.0607891    100.7942963   -22.7284794   49.2635193    -24.0793705   -62.9082985   
720000000     -11.3850403   -126.3964005  17.9597893    100.2972031   -22.6647491   49.2080688    -24.1994095   -62.7152100   
730000000     -11.3998499   -127.4824982  17.8694401    99.7811508    -22.5938797   49.4293709    -24.3662891   -63.2098389   
740000000     -11.4626398   -128.5106049  17.7722301    99.2407227    -22.4808903   49.4922714    -24.3332291   -63.6711006   
750000000     -11.4827499   -129.2174988  17.6765709    98.8386536    -22.3819695   49.7280083    -24.2591209   -63.3704300   
760000000     -11.4961901   -130.1349945  17.5902405    98.3043671    -22.3160305   49.9122505    -24.3186893   -63.4356613   
770000000     -11.5381203   -130.8507996  17.4931107    97.8590088    -22.2296505   49.9538689    -24.3035507   -63.2956810   
780000000     -11.5072098   -131.5717926  17.4088802    97.3913803    -22.1622009   50.0575294    -24.3804092   -63.9021111   
790000000     -11.5300999   -132.5155029  17.3153000    96.8977127    -22.0950794   49.9589386    -24.4824905   -63.6216698   
800000000     -11.5655804   -133.1345062  17.2225704    96.4586868    -21.9727097   50.2488213    -24.4899006   -63.7521515   
810000000     -11.5834303   -133.7097015  17.1343498    96.0261307    -21.8968105   50.3769417    -24.4483604   -63.8379402   
820000000     -11.5882502   -134.3983002  17.0499706    95.6105804    -21.8389797   50.3486900    -24.5680199   -64.2176437   
830000000     -11.5997496   -135.1392975  16.9661808    95.1205292    -21.7548008   50.3789406    -24.6059093   -64.0982132   
840000000     -11.6109304   -135.7436066  16.8856792    94.6937408    -21.6556206   50.2715988    -24.6820297   -64.2595367   
850000000     -11.5835199   -136.6631927  16.7962704    94.1669922    -21.6348209   50.3833389    -24.7758408   -63.4270287   
860000000     -11.6733704   -137.1658020  16.6925201    93.8122864    -21.5487709   50.5092506    -24.6747799   -61.4353409   
870000000     -11.6999397   -137.2454071  16.6226406    93.4987488    -21.4454803   50.7752304    -24.4284000   -61.8185310   
880000000     -11.7080603   -137.7577057  16.5473804    93.0560837    -21.3630409   50.6228104    -24.5031509   -62.1384583   
890000000     -11.7231503   -138.4118958  16.4604397    92.6160965    -21.2757206   50.7397499    -24.5752697   -62.0984116   
900000000     -11.7442598   -138.9438019  16.3818798    92.2085495    -21.1975708   50.7252617    -24.6737804   -62.1281891   
910000000     -11.7531004   -139.4924011  16.3069992    91.8134003    -21.1119404   50.7241592    -24.6177502   -62.2093811   
920000000     -11.7511501   -139.9241028  16.2234898    91.4006729    -21.0862293   51.0886497    -24.6065006   -62.0611801   
930000000     -11.8144503   -140.6410980  16.1521797    90.9856415    -20.9755192   50.7347908    -24.5629902   -62.5252113   
940000000     -11.8175602   -141.1535950  16.0715103    90.5872421    -20.9232006   50.9879913    -24.6232605   -61.7516899   
950000000     -11.8330402   -141.6914978  15.9965200    90.2023163    -20.8163891   51.0564613    -24.5860901   -62.1196594   
960000000     -11.8631096   -142.3153992  15.9210300    89.7877121    -20.7456398   50.6811104    -24.6654205   -62.4284286   
970000000     -11.8944998   -142.8045044  15.8440905    89.3824310    -20.6923409   50.9729614    -24.7022800   -62.4805298   
980000000     -11.9022303   -143.6174011  15.7707195    89.0089874    -20.6287899   50.9521294    -24.7043400   -62.7966309   
990000000     -11.9460802   -144.1109924  15.6943798    88.5919800    -20.5382595   51.1636581    -24.7770901   -62.3752289   
1000000000    -11.9387598   -144.9577026  15.6201496    88.2323227    -20.4992599   50.9304619    -24.9051094   -62.9910583   
1025000000    -11.9883604   -146.4216003  15.4407997    87.2668610    -20.2964096   50.9280205    -24.9211693   -63.6000519   
1050000000    -12.0075302   -147.9808960  15.2624998    86.3582230    -20.1500092   50.9105110    -25.2182503   -64.0689011   
1075000000    -12.0270395   -149.6585999  15.0812597    85.4017715    -20.0011005   51.0988083    -25.3553696   -64.1660004   
1100000000    -12.0485802   -150.9114990  14.9120903    84.5490570    -19.8143806   50.9363594    -25.4069691   -65.7739563   
1125000000    -12.0264997   -152.2252045  14.7373400    83.6752396    -19.6625595   50.9828796    -25.5655708   -65.8873062   
1150000000    -12.0358801   -153.3159027  14.5773296    82.8354111    -19.4909096   50.8602409    -25.5821095   -66.8692169   
1175000000    -12.0428495   -154.5576019  14.4167500    81.9939423    -19.3202095   50.8669090    -25.5330906   -68.0218506   
1200000000    -12.0631399   -155.6136932  14.2561703    81.1695328    -19.1766891   50.7569389    -25.5239601   -69.1678696   
1225000000    -12.1001902   -156.5991058  14.1032696    80.3348770    -19.0208797   50.6932487    -25.3868904   -68.9579926   
1250000000    -12.1320200   -157.7048035  13.9465399    79.5297699    -18.8535900   50.5031395    -25.3178692   -69.9501419   
1275000000    -12.1813002   -158.7180939  13.7962599    78.6928329    -18.7534294   50.3812904    -25.2801495   -71.4129333   
1300000000    -12.2107601   -159.8706055  13.6535501    77.9112473    -18.5963497   50.3380585    -25.1542091   -71.0414886   
1325000000    -12.2228498   -161.2960052  13.5068398    77.0895767    -18.4569893   50.0939293    -25.1802902   -71.9703064   
1350000000    -12.2533703   -162.2895050  13.3635902    76.3399277    -18.2995796   49.9939384    -25.1394501   -71.9945679   
1375000000    -12.2602997   -163.2068024  13.2261896    75.5994186    -18.1777096   49.7671585    -25.2044392   -72.3457031   
1400000000    -12.2449903   -164.2631989  13.0876598    74.8258896    -18.0475006   49.6625404    -25.2028809   -72.1507263   
1425000000    -12.1999397   -165.1412048  12.9532204    74.0615082    -17.9127808   49.5653114    -25.2559795   -72.5140305   
1450000000    -12.1914501   -165.8979034  12.8158798    73.3253632    -17.7624397   49.2369194    -25.3257504   -72.5517731   
1475000000    -12.2010098   -166.4100952  12.6855097    72.6167679    -17.6402798   49.0534706    -25.4974003   -73.5559082   
1500000000    -12.1824598   -167.0964050  12.5600004    71.8714905    -17.5289993   49.0770302    -25.5162506   -72.4234390   
1525000000    -12.1990900   -167.7035980  12.4369097    71.2010803    -17.4147491   48.8192596    -25.4870300   -73.3446579   
1550000000    -12.2292004   -168.5419006  12.3165503    70.4694901    -17.2922497   48.5635796    -25.2592297   -73.6430588   
1575000000    -12.2444401   -169.3883972  12.1943703    69.7571335    -17.1518497   48.3538895    -25.1862907   -74.5815964   
1600000000    -12.2943897   -170.1408997  12.0721798    69.0312500    -17.0416203   48.1671410    -25.3298492   -75.1519775   
1625000000    -12.3106804   -171.3105927  11.9587097    68.3342819    -16.9184303   47.9139595    -25.0685806   -76.1730270   
1650000000    -12.3574600   -172.2989044  11.8392897    67.6243668    -16.8101501   47.7904510    -25.0697899   -77.7018585   
1675000000    -12.3625097   -173.3484039  11.7245502    66.9433365    -16.6974697   47.4416809    -24.9117603   -78.3539124   
1700000000    -12.3788700   -174.1007996  11.6060896    66.2808838    -16.6060696   47.3347511    -24.9567509   -78.1476974   
1725000000    -12.3676300   -174.9580994  11.5055504    65.5927582    -16.4905205   46.9653816    -24.6841793   -79.8302078   
1750000000    -12.3410196   -175.5933075  11.3903198    64.8890686    -16.3678093   46.7907486    -24.6966591   -80.3389130   
1775000000    -12.3689899   -176.2402954  11.2799997    64.2521133    -16.2736397   46.6203804    -24.4759197   -79.9961166   
1800000000    -12.3368397   -176.6251068  11.1746502    63.6151619    -16.1729202   46.2916794    -24.4797993   -79.5656815   
1825000000    -12.3789597   -177.1705933  11.0713797    62.9507904    -16.0738506   45.9918900    -24.3585205   -79.5632782   
1850000000    -12.4150400   -177.5149994  10.9714699    62.3186798    -15.9691896   45.7032089    -24.1347904   -79.6617966   
1875000000    -12.4369297   -178.0131073  10.8759098    61.6458397    -15.8545198   45.4572716    -24.0600796   -78.6860428   
1900000000    -12.4916601   -178.4503937  10.7754698    61.0253105    -15.7468500   45.3273697    -23.9819508   -79.4175415   
1925000000    -12.5656605   -179.2234039  10.6810904    60.3375587    -15.6490803   44.9322205    -23.8660908   -79.6617432   
1950000000    -12.5947599   179.8182983   10.5876303    59.6717186    -15.5423098   44.5631104    -23.7803001   -80.4713287   
1975000000    -12.5879002   178.9411011   10.4891796    59.0393486    -15.4528599   44.2200089    -23.7754097   -81.1098785   
2000000000    -12.5888901   178.0762024   10.3990602    58.3820992    -15.3710699   44.0973396    -23.7304096   -81.8595581   
2025000000    -12.5966196   177.2720032   10.2993698    57.7492599    -15.2808304   43.8133888    -23.7316799   -83.2520065   
2050000000    -12.5763702   176.4154968   10.2044497    57.0968094    -15.1700602   43.3551598    -23.6811905   -83.2667618   
2075000000    -12.5521603   175.4494019   10.1095304    56.4917183    -15.1156797   43.1809196    -23.6956902   -83.2488098   
2100000000    -12.5490999   175.0361023   10.0236902    55.8638496    -15.0204201   42.8480911    -23.5699596   -84.0716400   
2125000000    -12.5365400   174.9378052   9.9374790     55.2476387    -14.8984604   42.5600510    -23.4221992   -84.3271866   
2150000000    -12.5718098   174.3014069   9.8505669     54.6150398    -14.8361797   42.2216797    -23.3442993   -84.9269485   
2175000000    -12.5929604   174.1504059   9.7609854     53.9831085    -14.7312202   41.9208603    -23.3918991   -85.1221390   
2200000000    -12.6374998   173.6333008   9.6845064     53.4048996    -14.6418695   41.6064301    -23.0532494   -85.4416428   
2225000000    -12.6917496   172.9884033   9.6035366     52.8098297    -14.5601797   41.2242699    -22.9542007   -85.5576019   
2250000000    -12.7198296   172.4042969   9.5225573     52.1185493    -14.4716301   41.0457306    -22.7312908   -85.6754532   
2275000000    -12.7612305   171.8724976   9.4373569     51.5333099    -14.4077902   40.5206718    -22.6605892   -86.2231293   
2300000000    -12.8970604   171.3256989   9.3475847     51.0502090    -14.3611898   40.4463997    -22.6233292   -84.7811127   
