!Mini-Circuits Laboratory
!S-Parameters, Port extension performed
!Model: PGA-103+
!Run / Lot / Date Code: N/A / BP170-001-01-101EV / 1210
!Fixture: TB-313
!Network Analyzer: PNA-X N5242A - 423 4 ports;  Serial number: 71013
!Date: 5/23/2012 at 10:36:43 AM
!S/N: Unit# 1
!Tested with: VDD=5V AT -45C
!
# Hz  S  dB  R  50
!Frequency    S11 dB        S11 Deg       S21 dB        S21 Deg       S12 dB        S12 Deg       S22 dB        S22 Deg       
10000000      -2.1192939    -22.3245106   30.1656208    167.4129028   -34.2491417   77.5374527    -7.1084619    -28.4881401   
20000000      -3.4691160    -35.7710304   28.9143906    161.4756927   -32.4072800   45.9944687    -8.3730383    -50.4630394   
30000000      -5.2519889    -42.5067787   28.0139904    159.5377045   -31.3544693   33.9879494    -10.7565899   -63.8900909   
40000000      -6.5970540    -45.7610207   27.4298592    158.8007050   -30.5482101   29.6844597    -12.7843199   -72.3112030   
50000000      -7.6092048    -47.3356705   27.0651798    158.3175964   -29.6477909   25.4201908    -14.4751501   -77.8876572   
60000000      -8.3787060    -48.1351585   26.7413101    157.9194031   -30.2436008   21.5253601    -16.1864491   -82.7924423   
70000000      -8.9881172    -49.3804092   26.5436192    157.0354004   -29.9198704   23.0389709    -17.6320496   -87.2880173   
80000000      -9.4475822    -50.3078995   26.3700008    156.0500946   -29.8040409   22.3342209    -19.0245495   -90.3614273   
90000000      -9.8379555    -51.4654388   26.2214298    154.9694061   -29.8115902   22.4298592    -20.3716106   -93.6746979   
100000000     -10.1217003   -52.6687889   26.0897198    153.7738953   -29.6553402   22.2869606    -21.6139908   -95.9139481   
110000000     -10.3506498   -53.7701187   25.9675102    152.4548035   -29.4372196   23.8202209    -22.8820210   -96.9313965   
120000000     -10.5463305   -55.3165703   25.8531303    151.2183990   -29.5733299   24.2589607    -24.0960197   -100.3683014  
130000000     -10.7541504   -56.8699684   25.7223892    149.8789063   -29.0156994   21.2669601    -25.6860600   -104.1260986  
140000000     -10.9162798   -58.4852219   25.6037693    148.5227966   -29.3482208   24.1273708    -26.6303406   -103.1620026  
150000000     -11.1641397   -60.4221382   25.4801006    147.2254944   -29.1850700   24.9412594    -28.1414509   -107.0707016  
160000000     -11.2657404   -62.0168686   25.3585892    145.8791962   -29.1276894   25.4563694    -29.7655792   -110.1235962  
170000000     -11.4038496   -63.7119598   25.2403393    144.5702057   -29.0241299   26.5370998    -31.5597000   -110.8095016  
180000000     -11.5818701   -65.5356064   25.1189594    143.2335052   -28.9522095   27.7505798    -33.2762299   -112.6397018  
190000000     -11.6872196   -67.5535965   24.9955997    141.9606934   -28.8883209   27.3713398    -35.5284615   -114.7686996  
200000000     -11.8238897   -69.4081192   24.8657093    140.6575928   -28.7415905   28.7937393    -37.8595581   -118.9561005  
210000000     -11.9565201   -71.2142029   24.7344608    139.4409027   -28.6128902   29.3499107    -42.4526711   -128.0727997  
220000000     -12.0656900   -73.4594727   24.6087608    138.2023926   -28.5108891   29.4561100    -45.5638504   -149.6925049  
230000000     -12.1519699   -75.2783279   24.4851398    137.0000000   -28.4843407   30.3803596    -51.9515991   167.7875061   
240000000     -12.2813501   -77.2036667   24.3484097    135.7953949   -28.3177395   31.5671406    -46.0406418   102.6624985   
250000000     -12.3791399   -78.9504318   24.2220707    134.5722961   -28.1747208   31.9844398    -41.8445015   89.2772217    
260000000     -12.4637899   -81.0650864   24.0897999    133.4559937   -28.0994892   32.2515984    -39.0516014   84.4446030    
270000000     -12.5871401   -82.8130417   23.9590893    132.3211060   -28.0105400   33.5374718    -37.1310692   80.3160629    
280000000     -12.6595402   -84.7948837   23.8304195    131.2505035   -27.9037704   33.5074387    -35.6420898   77.7207870    
290000000     -12.7472897   -86.6129913   23.7008400    130.1376038   -27.8300304   34.3324509    -34.2675591   75.8178864    
300000000     -12.7673502   -88.3753891   23.5650692    129.0782013   -27.7269306   34.9786491    -33.7607193   72.1759567    
310000000     -12.8936195   -90.0911407   23.4442101    128.0664063   -27.5729504   35.5888710    -32.5207100   70.2316971    
320000000     -12.9514599   -91.8719330   23.3097897    127.0372009   -27.5072308   36.2226906    -32.0338593   68.8467865    
330000000     -13.0321798   -93.4960480   23.1813107    126.0579987   -27.3490601   36.2961502    -31.2185593   66.5509872    
340000000     -13.1019096   -95.0555801   23.0555897    125.0933990   -27.2674408   37.0722504    -30.5501595   65.7198715    
350000000     -13.1330204   -96.7138672   22.9233208    124.1635971   -27.2342892   37.1747284    -30.0029392   63.0424309    
360000000     -13.2098703   -98.1299210   22.7979507    123.2260971   -27.0948391   38.0715599    -29.4999905   61.5041618    
370000000     -13.2746401   -99.8192673   22.6726704    122.2964020   -26.9315891   38.4629784    -29.2334099   60.9740906    
380000000     -13.3353300   -100.9400024  22.5460300    121.4319992   -26.8071804   39.0751305    -28.7129097   59.0228310    
390000000     -13.3952398   -102.6994019  22.4185696    120.5102005   -26.6889496   39.6769485    -28.5360394   58.1775398    
400000000     -13.4643803   -104.0056000  22.3013191    119.6811981   -26.6030293   39.5952606    -28.0756207   56.0301704    
410000000     -13.5305901   -105.6337967  22.1705303    118.8404999   -26.4388504   40.2824402    -27.8708992   55.4602318    
420000000     -13.5490704   -106.6763000  22.0574207    118.0120010   -26.4590893   40.9220886    -27.5544491   54.4573898    
430000000     -13.6282701   -108.1647034  21.9352894    117.1943970   -26.2697201   40.8525505    -27.4470692   52.5671005    
440000000     -13.6771498   -109.4742966  21.8155708    116.3992004   -26.1632004   41.9463882    -27.1940403   50.7873192    
450000000     -13.7482700   -110.6772995  21.7015591    115.6418991   -26.0245705   42.0147400    -26.9232407   49.6290512    
460000000     -13.7985697   -112.1798019  21.5802193    114.8535004   -25.9205704   42.3778687    -26.9684696   48.5416107    
470000000     -13.8615103   -113.3945999  21.4622402    114.1081009   -25.8722191   42.7422714    -26.6695709   48.1212997    
480000000     -13.8891096   -114.6654968  21.3485107    113.3303986   -25.7671394   43.0061607    -26.4367905   47.1492310    
490000000     -13.9857798   -116.0823975  21.2247906    112.6144028   -25.6623192   43.3926697    -26.1435909   45.6991692    
500000000     -14.1166401   -117.5177002  21.1046696    111.8656006   -25.5416794   43.3980904    -26.1494598   44.4708290    
510000000     -14.1853800   -117.9900970  20.9899406    111.2365036   -25.4472809   43.8304291    -25.7962494   43.8206406    
520000000     -14.1603403   -119.2046967  20.8874493    110.5544968   -25.3269596   43.9426193    -25.7717304   41.7033081    
530000000     -14.2079401   -120.4570999  20.7811699    109.8436966   -25.1592598   44.8774910    -25.6658096   39.7514305    
540000000     -14.2485905   -121.5419998  20.6695004    109.1714020   -25.1398602   44.7590294    -25.6358604   39.7248611    
550000000     -14.2774401   -122.8546982  20.5596600    108.5381012   -25.0241699   44.8428192    -25.5455303   38.9063797    
560000000     -14.3184099   -124.0076981  20.4564095    107.8683014   -24.8759804   45.1660995    -25.5846100   38.2374611    
570000000     -14.3405104   -125.1397018  20.3464108    107.2225037   -24.7873707   45.4224510    -25.5654392   36.9956207    
580000000     -14.3650799   -126.4382019  20.2425499    106.5925980   -24.7010193   45.6494102    -25.3546200   36.9119110    
590000000     -14.3745804   -127.3483963  20.1377392    105.9560013   -24.6120205   45.8130798    -25.3239594   35.1528015    
600000000     -14.3976097   -128.3285065  20.0324707    105.3387985   -24.4849796   45.7168198    -25.2117996   34.0577087    
610000000     -14.3686304   -129.5155029  19.9253902    104.7232971   -24.4218407   46.1725197    -25.1500206   34.1547813    
620000000     -14.4112396   -130.5773010  19.8261299    104.1668015   -24.3230991   46.3860016    -24.9353504   33.6704597    
630000000     -14.4324198   -131.4799957  19.7216797    103.5617981   -24.1665897   46.5246582    -24.9041595   32.7346916    
640000000     -14.4406796   -132.2866058  19.6225491    103.0151978   -24.1208305   47.0522919    -24.8775291   32.3285713    
650000000     -14.4372797   -133.2212982  19.5251999    102.4161987   -24.0045605   47.1371193    -24.7847004   30.9584904    
660000000     -14.4445295   -134.2015076  19.4236298    101.8336029   -23.8733196   47.0093002    -24.6597900   29.8340797    
670000000     -14.4881601   -135.1336060  19.3278694    101.2725983   -23.8484001   46.9448204    -24.6313095   29.1918392    
680000000     -14.4539204   -135.9985962  19.2285500    100.7480011   -23.7061691   47.3909988    -24.5230103   29.3835392    
690000000     -14.4639101   -136.8403015  19.1336708    100.2053986   -23.6509895   47.1707191    -24.3490391   28.1333008    
700000000     -14.4919901   -137.6315002  19.0385208    99.6509476    -23.5309296   47.6132889    -24.3516407   27.7340508    
710000000     -14.4978704   -138.5368958  18.9385509    99.1073303    -23.4610691   47.8213081    -24.2889404   27.2367306    
720000000     -14.5269299   -139.1356964  18.8436909    98.6063995    -23.4055500   47.6864395    -24.1603203   27.1724091    
730000000     -14.5207996   -140.0005951  18.7559204    98.0938873    -23.2507000   48.0188789    -24.1054707   27.0892200    
740000000     -14.5674896   -140.9582977  18.6633091    97.5518799    -23.1971092   47.9739304    -24.1168594   26.0303707    
750000000     -14.5957403   -141.7926025  18.5683002    97.1003113    -23.1379910   48.0741997    -23.9172802   25.5041904    
760000000     -14.5822296   -142.4886932  18.4858208    96.5648575    -23.0129395   48.1495285    -23.9025192   24.5883102    
770000000     -14.6545000   -142.9378052  18.3864002    96.1081467    -22.9203701   48.5183182    -23.7497902   24.0606003    
780000000     -14.6009398   -143.5912018  18.3067303    95.6392517    -22.8427505   48.5608406    -23.7295208   22.9363308    
790000000     -14.5842304   -144.5119019  18.2182598    95.1418915    -22.7308197   48.5734787    -23.7255096   22.3879700    
800000000     -14.6280098   -145.1714935  18.1344109    94.6591034    -22.6661797   48.4171982    -23.7063103   22.3851299    
810000000     -14.6217899   -146.0095978  18.0463696    94.1571426    -22.5644302   48.5645103    -23.6929703   21.6712303    
820000000     -14.6554098   -146.8614044  17.9596500    93.7520065    -22.5010109   48.8335495    -23.7989597   21.0844097    
830000000     -14.6511602   -147.7911987  17.8786793    93.2383804    -22.4053593   48.6870804    -23.8139400   20.4415894    
840000000     -14.6515503   -148.5119019  17.7979698    92.7855835    -22.3272800   48.6429291    -23.8509598   20.3731499    
850000000     -14.5923004   -149.3957977  17.7126198    92.2802963    -22.2489796   48.8429985    -23.8645306   19.4917603    
860000000     -14.5952902   -150.2030945  17.6258602    91.8049469    -22.1820507   48.6517181    -23.9082699   19.5697002    
870000000     -14.6620398   -151.2592010  17.5294399    91.3999329    -22.1075993   48.6524811    -23.6435299   20.0961304    
880000000     -14.6708002   -151.2819977  17.4642696    91.0154724    -22.0100708   49.0502090    -23.6391201   17.9634094    
890000000     -14.6303101   -152.0811005  17.3808308    90.5387726    -21.9520798   48.8988304    -23.8044395   18.0297699    
900000000     -14.6102800   -153.0086975  17.3016891    90.0854797    -21.8599091   48.8049011    -23.8528099   17.5534401    
910000000     -14.5730600   -154.0814972  17.2232399    89.6033707    -21.8112602   49.0111389    -23.8807297   18.0888405    
920000000     -14.6199598   -154.2317047  17.1341209    89.2625809    -21.7125092   48.9915009    -23.7580700   16.5481205    
930000000     -14.6541100   -155.0915070  17.0643692    88.8520737    -21.6158295   48.9772987    -23.8740196   15.5136900    
940000000     -14.6053104   -155.6483002  16.9878807    88.4229889    -21.5478001   49.0128212    -23.8348103   15.2445602    
950000000     -14.5658903   -156.1016998  16.9140301    88.0009613    -21.4702492   49.1239586    -23.8283291   14.5272198    
960000000     -14.5599899   -156.7015991  16.8408794    87.5660629    -21.3827591   49.2249603    -23.9153805   14.3402700    
970000000     -14.5495005   -157.3578033  16.7612209    87.1325531    -21.2894306   49.2053909    -23.9517994   13.6128502    
980000000     -14.5457497   -158.2391052  16.6875992    86.7405472    -21.2500305   49.0136795    -23.9490204   13.6208296    
990000000     -14.5565596   -158.4418030  16.6133308    86.3296967    -21.1429901   49.0696106    -23.9220695   13.0734501    
1000000000    -14.5285702   -159.0827942  16.5399895    85.9610672    -21.0977898   49.0308800    -23.9685192   12.8310204    
1025000000    -14.5498600   -160.4524994  16.3631897    84.9546890    -20.9152508   49.0122910    -23.8771591   11.0463600    
1050000000    -14.5658798   -161.5202942  16.1897392    83.9937897    -20.7310791   48.7436905    -23.9051399   9.7667999     
1075000000    -14.5501499   -163.0805054  16.0174999    82.9701996    -20.5596008   48.7757607    -23.8729401   8.1944389     
1100000000    -14.6055698   -164.3087006  15.8507500    82.0413971    -20.4001999   48.6110497    -23.8856792   5.9235559     
1125000000    -14.5874796   -165.6656036  15.6805296    81.1114502    -20.2109394   48.5512199    -23.8549004   4.7814651     
1150000000    -14.5601997   -167.0312042  15.5231600    80.1603394    -20.0526295   48.4293785    -23.9294300   3.0055239     
1175000000    -14.5452204   -168.8368073  15.3509102    79.1904526    -19.9244595   48.4092903    -23.9586792   2.3877180     
1200000000    -14.5591297   -169.4517975  15.1997900    78.4314728    -19.7378407   48.1286507    -23.9878101   0.0533044     
1225000000    -14.4986401   -170.6799011  15.0479698    77.5006180    -19.6114292   48.0038185    -23.9990807   -0.7483755    
1250000000    -14.4164896   -171.8323059  14.8904495    76.6263885    -19.4276695   47.7909317    -24.1181507   -1.4205620    
1275000000    -14.3791800   -172.6636047  14.7403002    75.7297287    -19.2728596   47.5003586    -24.2551403   -1.8137690    
1300000000    -14.3291998   -173.5720062  14.5942402    74.8976669    -19.1471691   47.4093399    -24.0704498   -2.2653179    
1325000000    -14.2818003   -174.5704956  14.4548903    74.0404282    -18.9925709   47.2178802    -24.0727901   -3.4627790    
1350000000    -14.2859497   -175.3679962  14.3164301    73.2274017    -18.8349895   46.9321594    -24.1682205   -4.9868588    
1375000000    -14.2988901   -176.1006927  14.1847801    72.4267807    -18.7190208   46.9063416    -24.2216206   -6.4752388    
1400000000    -14.2875299   -177.1605988  14.0483799    71.5862732    -18.5554008   46.6692085    -24.1103306   -8.3530235    
1425000000    -14.2878199   -178.0299988  13.9176102    70.7505264    -18.4188805   46.3708801    -24.2270298   -10.6173000   
1450000000    -14.2868700   -179.0957947  13.7841597    69.9251633    -18.2934895   46.0945396    -24.2473907   -12.3128099   
1475000000    -14.3277302   -179.8677979  13.6549902    69.1393204    -18.1780491   45.8233490    -24.3924103   -14.2981195   
1500000000    -14.2999401   179.1049042   13.5306101    68.3024521    -18.0496597   45.5855408    -24.2964993   -15.6666203   
1525000000    -14.2698097   178.1934967   13.4066601    67.5490265    -17.9101906   45.2811089    -24.3328304   -16.8705997   
1550000000    -14.2512598   176.9936981   13.2856503    66.7363510    -17.7757893   44.9682999    -24.2706203   -18.9330006   
1575000000    -14.2103901   176.2630005   13.1610003    65.9642029    -17.6787300   44.7060699    -24.3044395   -19.4858704   
1600000000    -14.1721497   175.8628998   13.0385904    65.1918564    -17.5439701   44.4927902    -24.2807808   -19.3008900   
1625000000    -14.1399803   174.8240967   12.9249096    64.4217377    -17.4161396   44.1356201    -24.2148495   -20.6749096   
1650000000    -14.1108198   174.3694000   12.8064699    63.6667900    -17.2858791   43.8687897    -24.2032299   -21.3088093   
1675000000    -14.0834503   173.5393066   12.6951704    62.9317894    -17.1898499   43.4637794    -24.0641003   -23.1062508   
1700000000    -14.0893497   173.3421936   12.5823202    62.2226982    -17.0786800   43.2289391    -23.9932003   -23.1928596   
1725000000    -14.0868397   172.6045990   12.4826002    61.4719696    -16.9449501   42.8599510    -23.9512005   -25.9211197   
1750000000    -14.0813503   172.1977997   12.3708601    60.6914482    -16.8379192   42.6493912    -23.9942608   -27.3253403   
1775000000    -14.1219301   171.2294006   12.2657299    59.9748802    -16.7351093   42.2617493    -23.8393402   -29.4095592   
1800000000    -14.1230402   170.5126038   12.1603003    59.2497711    -16.6046295   41.8707390    -23.8475704   -30.5577698   
1825000000    -14.1478300   169.5401001   12.0550299    58.4749908    -16.5267296   41.4440613    -23.8388004   -32.4593506   
1850000000    -14.1673298   168.8372040   11.9582500    57.7682495    -16.3997192   41.0625992    -23.7722092   -34.4677010   
1875000000    -14.1750202   168.1396027   11.8591995    57.0561981    -16.3125191   40.9353790    -23.6696091   -34.8596992   
1900000000    -14.1607800   167.5912018   11.7555399    56.3368492    -16.2171192   40.5604591    -23.6536598   -35.9752197   
1925000000    -14.1646605   166.5276947   11.6603098    55.5790710    -16.1214104   40.2584686    -23.5109406   -37.4216118   
1950000000    -14.1586800   166.2028046   11.5655298    54.8700714    -16.0013294   39.7860107    -23.4197197   -38.6231117   
1975000000    -14.1174498   165.7729034   11.4713402    54.1761208    -15.8776302   39.3628693    -23.3014393   -38.9705887   
2000000000    -14.1086302   165.5066071   11.3798704    53.4606400    -15.8107901   39.1610298    -23.0945606   -40.0252609   
2025000000    -14.1247301   165.4649963   11.2866402    52.7786789    -15.7174902   38.7170792    -22.9079399   -41.0171013   
2050000000    -14.1146803   165.0605927   11.1943598    52.0516701    -15.6203098   38.4127998    -22.7501202   -41.8555298   
2075000000    -14.1776896   164.5966949   11.1030703    51.4185219    -15.5427303   37.9494286    -22.5605297   -43.0392494   
2100000000    -14.2215004   164.0973969   11.0199299    50.6932411    -15.4462099   37.6012917    -22.4600601   -44.1348991   
2125000000    -14.2361898   164.0056000   10.9369297    49.9973297    -15.3238201   37.3638306    -22.3183899   -45.4449501   
2150000000    -14.3178797   163.1593018   10.8522196    49.2709503    -15.2421999   36.8683395    -22.3085499   -46.9807014   
2175000000    -14.3103704   162.5104065   10.7635298    48.5571289    -15.1580000   36.4402199    -22.3289795   -47.5665207   
2200000000    -14.3288898   161.4774017   10.6849699    47.9075890    -15.0712605   36.0316811    -22.1577492   -49.1167488   
2225000000    -14.3173599   160.6817017   10.6050301    47.2107201    -14.9876204   35.5808105    -22.1984501   -49.7931519   
2250000000    -14.2560301   160.0890961   10.5215101    46.4794617    -14.8735304   35.2904091    -22.0324306   -50.9246216   
2275000000    -14.3035898   159.5108032   10.4338799    45.8276787    -14.7966995   34.7879791    -21.9957008   -51.8638992   
2300000000    -14.3228703   159.4698029   10.3584404    45.1989288    -14.7386999   34.5461807    -21.7535400   -51.8836708   
