!Mini-Circuits Laboratory
!S-Parameters, Port extension performed
!Model: PGA-103+
!Run / Lot / Date Code: N/A / BP170-001-01-101EV / 1210
!Fixture: TB-313
!Network Analyzer: PNA-X N5242A - 423 4 ports;  Serial number: 71013
!Date: 5/24/2012 at 5:20:04 PM
!S/N: Unit# 1
!Tested with: Vdd=2.7V at -45C
!
# Hz  S  dB  R  50
!Frequency    S11 dB        S11 Deg       S21 dB        S21 Deg       S12 dB        S12 Deg       S22 dB        S22 Deg       
10000000      -1.2327220    -19.9628391   28.7807407    168.8672943   -37.1133690   56.6887894    -5.5149460    -25.7178307   
20000000      -3.0458400    -31.3573303   27.8436394    163.2799072   -31.7548008   45.6967087    -7.6404381    -42.6427917   
30000000      -4.6362462    -37.0980110   27.0326405    161.2550964   -30.6457100   34.9002686    -9.7952366    -52.8985291   
40000000      -5.8639212    -39.7216415   26.4924202    160.3975983   -30.0509605   28.9794292    -11.7263098   -58.6539993   
50000000      -6.5894189    -41.6431694   26.1518993    159.8661957   -29.7113609   31.0148602    -13.1571503   -62.2103691   
60000000      -7.4430628    -42.1531982   25.8526306    159.5162964   -29.0968609   25.4810600    -14.7846699   -63.9672508   
70000000      -7.8700399    -42.9084587   25.6705894    158.6107025   -29.2285194   23.7224197    -15.8659496   -64.9811783   
80000000      -8.2608309    -43.7706604   25.5097809    157.6318970   -29.1090794   23.2644806    -17.0123501   -65.1085968   
90000000      -8.5798159    -44.8954887   25.3738995    156.5758972   -29.0788593   22.6756992    -17.9795399   -65.2246094   
100000000     -8.8116770    -45.9643898   25.2537804    155.4221039   -28.9433498   22.8121891    -18.8363209   -64.9409714   
110000000     -8.9901962    -47.1413193   25.1407299    154.1513062   -28.8551502   23.5021496    -19.6477509   -63.6208992   
120000000     -9.1767139    -48.5998917   25.0368004    152.9591064   -28.7339001   22.6017609    -20.3473091   -63.2452583   
130000000     -9.3689709    -49.8582687   24.9166698    151.6782990   -28.9291096   20.0748405    -21.1719398   -61.2487183   
140000000     -9.4966373    -51.5976715   24.8132496    150.3789978   -28.6641197   23.7796192    -21.5835495   -61.1501503   
150000000     -9.7047396    -53.4665985   24.7031097    149.1244049   -28.6182995   23.7555103    -22.3680191   -60.5386086   
160000000     -9.8169661    -54.9745483   24.5923595    147.8191986   -28.3395901   24.9210396    -22.9337807   -58.5201607   
170000000     -9.9423256    -56.5876312   24.4856796    146.5614929   -28.4365807   25.5138493    -23.3957405   -56.6272888   
180000000     -10.0636997   -58.2245407   24.3789291    145.2649994   -28.2375793   26.3872890    -23.8049793   -54.7041397   
190000000     -10.1923504   -59.9883499   24.2680397    144.0341949   -28.2697506   26.7959709    -24.3760300   -52.4500999   
200000000     -10.3162699   -61.8784294   24.1494808    142.7577972   -28.0936604   27.0151806    -24.8257008   -51.6194191   
210000000     -10.4169798   -63.5048409   24.0314999    141.5619049   -27.9814892   27.8273201    -25.3571701   -48.3363495   
220000000     -10.5348396   -65.6393890   23.9178200    140.3464966   -27.8736191   27.8939610    -25.8238792   -47.5377312   
230000000     -10.6232996   -67.3519363   23.8053608    139.1737061   -27.8277092   28.7370300    -26.2645302   -44.6202316   
240000000     -10.7735205   -69.2497406   23.6836395    137.9877930   -27.6852093   29.0215206    -26.7429008   -41.4487305   
250000000     -10.8725300   -70.8830185   23.5683899    136.7890930   -27.6534004   30.3089695    -27.1791191   -39.7575302   
260000000     -10.9668999   -73.0281677   23.4477501    135.6723938   -27.4799500   30.0146999    -27.4815807   -36.0566216   
270000000     -11.0852404   -74.7652893   23.3261909    134.5453949   -27.5578194   31.3795300    -27.9548702   -32.7013397   
280000000     -11.1404800   -76.5617065   23.2103291    133.4848022   -27.2943592   32.1945915    -28.0767593   -30.1147099   
290000000     -11.2569704   -78.3916702   23.0901299    132.3569946   -27.1908092   32.2537918    -28.4048004   -27.0507507   
300000000     -11.2740498   -80.2167664   22.9659996    131.3242035   -27.1074295   32.3418198    -28.4916401   -25.0520000   
310000000     -11.3948803   -81.8658829   22.8534107    130.3014069   -27.0762691   33.4618111    -28.5178299   -21.6867294   
320000000     -11.4617796   -83.6576538   22.7280407    129.2843933   -26.8862000   33.9098892    -28.7515907   -19.7421894   
330000000     -11.5128603   -85.1478577   22.6076298    128.2920074   -26.7880898   34.2275696    -28.7839603   -15.7039003   
340000000     -11.5940399   -86.7352295   22.4925404    127.3264008   -26.7178192   34.5639496    -28.7734909   -13.0089502   
350000000     -11.6309299   -88.4063797   22.3694096    126.3825989   -26.6156902   34.8656616    -28.6993999   -10.3399200   
360000000     -11.7246304   -89.8456879   22.2507496    125.4348984   -26.5669403   35.6560097    -28.5680199   -8.1210833    
370000000     -11.8083897   -91.3576965   22.1346493    124.5186005   -26.4401207   36.2889099    -28.6198292   -7.2011232    
380000000     -11.8680296   -92.6437912   22.0145206    123.6240997   -26.3239002   36.2339706    -28.3693295   -5.0994949    
390000000     -11.9305601   -94.3216095   21.8967991    122.7123032   -26.2391109   37.2180901    -28.5268097   -3.6261971    
400000000     -12.0051699   -95.4313965   21.7873993    121.8729019   -26.2023106   37.8845711    -28.2042694   -0.8120393    
410000000     -12.0818195   -97.0460587   21.6644897    121.0221024   -26.0344696   37.9131813    -28.2373009   -0.4293098    
420000000     -12.1240196   -98.1220779   21.5580597    120.1909027   -25.9231396   38.1612587    -28.0262794   -0.4487832    
430000000     -12.1986303   -99.5180664   21.4424896    119.3668976   -25.8600597   38.3393593    -27.8002892   0.1505078     
440000000     -12.2743797   -100.8198013  21.3311405    118.5618973   -25.7334499   38.7659988    -27.6799908   0.0935696     
450000000     -12.3380299   -102.2313004  21.2205601    117.7815018   -25.6970806   38.8492393    -27.4893799   1.2695220     
460000000     -12.4015999   -103.5669022  21.1075802    116.9716034   -25.5665798   39.7841415    -27.4219398   0.6305593     
470000000     -12.5027504   -104.8507004  20.9950409    116.2332001   -25.3818493   40.5488281    -27.3148499   1.9380760     
480000000     -12.5402803   -106.0855026  20.8876705    115.4328003   -25.3747997   40.2817993    -27.1844196   2.8123419     
490000000     -12.6406403   -107.3713989  20.7709999    114.7341003   -25.2736301   41.0611382    -27.0250301   3.3397970     
500000000     -12.7136202   -108.6112976  20.6655407    113.9740982   -25.1740303   41.0467682    -27.0379906   3.0242219     
510000000     -12.8264399   -110.0234985  20.5450897    113.2048035   -25.0727100   41.3438606    -26.6503792   4.2841382     
520000000     -12.8521204   -110.8180008  20.4477901    112.5850983   -25.0225105   41.2793312    -26.5194702   2.8337979     
530000000     -12.8915901   -112.1069031  20.3491192    111.8676987   -24.8740005   42.2931290    -26.4159794   1.9197570     
540000000     -12.9380302   -113.2323990  20.2412300    111.1812973   -24.7922306   41.8415489    -26.3583603   2.2126520     
550000000     -12.9809999   -114.3849030  20.1373196    110.5243988   -24.6938400   42.4250298    -26.3437996   2.2524910     
560000000     -13.0409403   -115.6689987  20.0374794    109.8374023   -24.6380596   42.3213196    -26.2249508   2.0848720     
570000000     -13.0625296   -116.9390030  19.9310894    109.1744003   -24.5478992   42.9349594    -26.1993408   1.5107610     
580000000     -13.0797100   -118.0550995  19.8332500    108.5225983   -24.4211502   43.2036209    -26.1781998   2.8403070     
590000000     -13.0965996   -119.0919037  19.7288799    107.8887024   -24.3085594   43.3648987    -26.0804005   1.4623220     
600000000     -13.1538801   -120.1846008  19.6303101    107.2469025   -24.2264500   43.6809998    -25.8897305   1.7524260     
610000000     -13.1391697   -121.3870010  19.5288391    106.6186981   -24.1063099   43.7199707    -25.9718399   2.0003779     
620000000     -13.1677399   -122.3360977  19.4306107    106.0302963   -24.0269508   43.7678795    -25.6784401   3.2595611     
630000000     -13.2034798   -123.3358002  19.3294697    105.4164963   -23.9690094   44.0279198    -25.6675797   2.6183710     
640000000     -13.2034302   -124.2592010  19.2342606    104.8526001   -23.8640804   44.2195892    -25.6058407   3.1440079     
650000000     -13.2265196   -125.1036987  19.1394806    104.2494965   -23.7807999   44.1764908    -25.5143700   2.6890690     
660000000     -13.2416296   -126.0705032  19.0407696    103.6611023   -23.6960201   44.6197395    -25.3396492   2.3157170     
670000000     -13.2688303   -126.9938965  18.9486599    103.0833969   -23.5880203   44.5117912    -25.2582798   1.9658780     
680000000     -13.2691698   -128.0700989  18.8541794    102.5363998   -23.4955406   44.8399315    -25.2583008   2.6406560     
690000000     -13.2832003   -128.9002075  18.7623291    101.9919968   -23.4211502   45.3889198    -25.0106392   3.0474091     
700000000     -13.3183899   -129.7530060  18.6694794    101.4310989   -23.3293400   45.0752106    -25.0862007   2.7707739     
710000000     -13.3242702   -130.5729980  18.5755100    100.8792038   -23.2229691   45.5288315    -24.9451599   2.3683729     
720000000     -13.3512497   -131.3141937  18.4827404    100.3356018   -23.1536407   45.5553894    -24.8895607   3.2296331     
730000000     -13.3614397   -132.2492981  18.3952198    99.8171234    -23.1126003   45.6614304    -24.8645992   3.0360570     
740000000     -13.4108400   -133.3365021  18.3055897    99.2569199    -23.0107498   45.8317490    -24.8708706   3.1801710     
750000000     -13.4373598   -134.1123962  18.2157707    98.7852631    -22.9140396   46.1605797    -24.6390495   2.6045761     
760000000     -13.4588404   -134.9185028  18.1339703    98.2525177    -22.8625603   45.8639603    -24.6386395   2.4486880     
770000000     -13.5016298   -135.7015076  18.0387402    97.7406464    -22.7703094   46.1059303    -24.5458603   2.4184470     
780000000     -13.5026798   -136.3027954  17.9575996    97.2845535    -22.6880798   46.1511307    -24.4494095   1.6355730     
790000000     -13.5092297   -137.3423004  17.8704491    96.7814331    -22.6007195   46.2080116    -24.5633907   1.6639820     
800000000     -13.5514002   -137.9232025  17.7878399    96.2941513    -22.5088692   46.2960396    -24.4721508   1.4401730     
810000000     -13.5358496   -138.8563995  17.7039604    95.7892227    -22.4057102   46.4776993    -24.5023594   0.7197110     
820000000     -13.5612602   -139.7469940  17.6225605    95.3406296    -22.3459091   46.8242798    -24.5706902   0.5034769     
830000000     -13.5660400   -140.6855011  17.5433006    94.8245163    -22.2763405   46.5764008    -24.6345692   -0.1770198    
840000000     -13.5828104   -141.5249023  17.4636402    94.3530731    -22.1726208   46.6781387    -24.7275391   -0.3722805    
850000000     -13.5619898   -142.4618073  17.3783207    93.8570175    -22.1218491   46.7835083    -24.5489502   -0.1168725    
860000000     -13.5865002   -143.1488037  17.2941704    93.4154663    -22.0593204   46.9380112    -24.5881195   -1.0291450    
870000000     -13.5972204   -144.0050964  17.2142906    92.9474564    -21.9559593   46.6876106    -24.6556892   -1.1328670    
880000000     -13.5972900   -144.6331024  17.1394806    92.4912872    -21.8680592   46.9395790    -24.6448898   -1.6492300    
890000000     -13.5746403   -145.4792023  17.0573502    92.0233688    -21.7806091   46.8763008    -24.6709709   -1.6885051    
900000000     -13.5741196   -146.3860931  16.9783592    91.5621338    -21.7275009   46.7977905    -24.7751007   -1.6772929    
910000000     -13.5595303   -147.2015991  16.9037800    91.0788803    -21.6649895   46.8622818    -24.7802105   -1.3425750    
920000000     -13.5803604   -147.6564026  16.8161697    90.6943970    -21.6122704   46.9857903    -24.6714897   -2.2115469    
930000000     -13.6247196   -148.7084045  16.7448807    90.2399063    -21.5153999   46.9944305    -24.6365795   -2.6798060    
940000000     -13.6261902   -149.4855957  16.6622696    89.8391266    -21.4620895   46.9452782    -24.4706306   -3.0089681    
950000000     -13.6259403   -149.6768951  16.5929699    89.4469528    -21.3678207   47.1982384    -24.5467701   -4.5378852    
960000000     -13.6031599   -150.4170990  16.5233402    88.9811172    -21.2684097   47.1847000    -24.6653309   -4.3681178    
970000000     -13.6104298   -150.9199066  16.4462109    88.5720825    -21.2211399   47.2561302    -24.6380692   -5.1416030    
980000000     -13.6243496   -151.7102051  16.3782997    88.1556931    -21.1481495   47.3602219    -24.6807499   -5.0646310    
990000000     -13.6131401   -152.0545044  16.3043499    87.7139664    -21.0697308   47.2117691    -24.5946407   -5.5611649    
1000000000    -13.5825500   -152.6587982  16.2322006    87.3393402    -20.9989796   47.0583000    -24.6544609   -5.7644768    
1025000000    -13.6115704   -154.1432953  16.0587006    86.2935867    -20.8214207   47.2078018    -24.5109196   -6.8106608    
1050000000    -13.6326599   -155.4833069  15.8863497    85.3117828    -20.6319294   47.1015701    -24.4646797   -7.6238632    
1075000000    -13.6573000   -156.9902039  15.7171698    84.3160629    -20.4895000   47.2553101    -24.3712597   -9.0707684    
1100000000    -13.6908197   -158.4640961  15.5544500    83.3037033    -20.3509808   47.1289711    -24.4906807   -10.6286697   
1125000000    -13.6784697   -160.0558929  15.3883696    82.3556595    -20.1347904   46.9647484    -24.4534206   -11.2266197   
1150000000    -13.6684198   -161.4969940  15.2323704    81.3889313    -19.9993496   46.8415413    -24.5102806   -12.5266705   
1175000000    -13.6438103   -163.2057953  15.0668402    80.4113464    -19.8579197   46.6369209    -24.5883999   -13.1883297   
1200000000    -13.6797895   -164.2772980  14.9084702    79.5993118    -19.6897602   46.7714195    -24.4907207   -14.8588400   
1225000000    -13.6139498   -165.4960938  14.7612400    78.6537094    -19.5498695   46.4592209    -24.5688705   -15.8509197   
1250000000    -13.5694704   -166.6591034  14.6079197    77.7771530    -19.4104099   46.4058495    -24.6306591   -16.6790199   
1275000000    -13.5495996   -167.7769928  14.4578199    76.8638992    -19.2461605   46.2704201    -24.8169804   -16.9431400   
1300000000    -13.5166597   -168.7315979  14.3183098    76.0062332    -19.1144199   46.0300484    -24.7129097   -17.9538498   
1325000000    -13.5002003   -169.8778076  14.1764202    75.1488266    -18.9484692   45.9295998    -24.6501408   -18.8080692   
1350000000    -13.4882603   -170.8190002  14.0417995    74.2881470    -18.8167992   45.8063393    -24.6282692   -20.4928894   
1375000000    -13.5002699   -171.6730042  13.9089804    73.4703827    -18.6814804   45.5422211    -24.6611309   -21.3160191   
1400000000    -13.4882498   -172.7127075  13.7754202    72.6232834    -18.5685406   45.2764282    -24.5132198   -22.7562008   
1425000000    -13.4891396   -173.7662048  13.6452703    71.7705231    -18.4199505   45.1685104    -24.5566196   -24.9856606   
1450000000    -13.5037498   -174.8684998  13.5132704    70.9247971    -18.2937908   44.7702408    -24.5544796   -26.3018303   
1475000000    -13.5182896   -175.6593933  13.3866501    70.1285172    -18.1568909   44.7512398    -24.6278896   -28.2446995   
1500000000    -13.5129900   -176.6985931  13.2636204    69.2798004    -18.0521107   44.4703598    -24.6081905   -29.3773899   
1525000000    -13.4807196   -177.6804047  13.1424198    68.5262070    -17.9259605   44.1863289    -24.6264191   -30.0144691   
1550000000    -13.4591599   -178.9172974  13.0206604    67.6872330    -17.7946396   43.9834099    -24.5268898   -31.7570305   
1575000000    -13.4397297   -179.7615051  12.8983097    66.9040833    -17.6563091   43.6437187    -24.5284595   -32.9192390   
1600000000    -13.4022598   179.5281067   12.7765102    66.1142883    -17.5430298   43.3655396    -24.5680103   -32.9541397   
1625000000    -13.3777199   178.4694977   12.6633396    65.3337402    -17.4018192   43.2348404    -24.4907608   -33.9468918   
1650000000    -13.3542204   177.8695068   12.5445700    64.5746613    -17.3246193   42.8519897    -24.4717007   -33.9497795   
1675000000    -13.3288603   176.9832001   12.4365702    63.8112106    -17.2007504   42.6722298    -24.3587894   -35.6859818   
1700000000    -13.3388796   176.6392975   12.3220100    63.0990601    -17.0856800   42.3675003    -24.2793007   -35.7824097   
1725000000    -13.3393097   175.7339935   12.2258501    62.3283081    -16.9566402   42.0858994    -24.1659603   -38.5909691   
1750000000    -13.3355103   175.3099976   12.1135397    61.5360107    -16.8571091   41.7272186    -24.1648197   -39.9176788   
1775000000    -13.3929996   174.4906006   12.0110703    60.8021202    -16.7583408   41.5827599    -23.9761906   -41.3238716   
1800000000    -13.3776102   173.5991974   11.9052696    60.0728302    -16.6474094   41.0995102    -23.9695301   -42.6816902   
1825000000    -13.4091997   172.6286011   11.8002195    59.3012390    -16.5442600   40.7199097    -23.8658199   -43.8744583   
1850000000    -13.4073601   171.8294983   11.7043695    58.5696297    -16.4265003   40.3394089    -23.8252697   -45.8761902   
1875000000    -13.4281998   171.1690063   11.6050596    57.8443413    -16.3347492   40.3092308    -23.6435699   -46.4529686   
1900000000    -13.4265699   170.5169067   11.5028095    57.1194801    -16.2278996   39.8652802    -23.6755791   -47.1808281   
1925000000    -13.4436903   169.4976959   11.4102001    56.3469810    -16.1336002   39.5218811    -23.4882507   -47.9500694   
1950000000    -13.4106703   169.0662994   11.3147297    55.6531715    -16.0573292   39.2165413    -23.4565506   -48.5191002   
1975000000    -13.3703203   168.5316925   11.2216797    54.9601402    -15.9348602   38.8847809    -23.2992496   -49.1766891   
2000000000    -13.3609400   168.1226959   11.1322498    54.2026215    -15.8424902   38.4721603    -23.1777191   -50.1041489   
2025000000    -13.3930597   167.8596954   11.0347300    53.5355110    -15.7410698   38.2359695    -22.9434605   -50.7403107   
2050000000    -13.3924904   167.4821930   10.9442997    52.8143082    -15.6571999   37.8364983    -22.7206192   -51.4380913   
2075000000    -13.4227200   166.9888000   10.8641300    52.1567116    -15.5505304   37.4413795    -22.5925503   -53.1285706   
2100000000    -13.4727001   166.3560028   10.7706003    51.4204788    -15.4737301   37.0504990    -22.5095196   -53.3433495   
2125000000    -13.4888000   166.1423035   10.6920900    50.7197304    -15.3786497   36.8038597    -22.2911091   -54.5190086   
2150000000    -13.5455103   165.2059021   10.6107597    49.9846916    -15.2644396   36.4764709    -22.2765102   -56.3513603   
2175000000    -13.5699902   164.4568939   10.5201302    49.2599792    -15.1825304   35.9882202    -22.3539009   -56.4547882   
2200000000    -13.5760098   163.6101074   10.4424400    48.6159897    -15.0779495   35.6150589    -22.1310596   -57.8778114   
2225000000    -13.5768204   162.9523926   10.3634100    47.9093590    -15.0104799   35.1357384    -22.1592293   -58.5502205   
2250000000    -13.5128603   162.3211060   10.2814903    47.1578102    -14.9165802   34.7788696    -21.9489594   -59.0903587   
2275000000    -13.5333500   161.6217041   10.1948605    46.4981194    -14.8354902   34.5643883    -21.9070301   -60.0609818   
2300000000    -13.5968599   161.3471985   10.1159401    45.8837013    -14.7514000   34.1939812    -21.7235699   -60.3410912   
