!Mini-Circuits Laboratory
!S-Parameters, Port extension performed
!Model: PGA-103+
!Run / Lot / Date Code: N/A / BP170-001-01-101EV / 1210
!Fixture: TB-313
!Network Analyzer: PNA-X N5242A - 423 4 ports;  Serial number: 71013
!Date: 5/24/2012 at 5:08:53 PM
!S/N: Unit# 1
!Tested with: Vdd=2.7V at 25C
!
# Hz  S  dB  R  50
!Frequency    S11 dB        S11 Deg       S21 dB        S21 Deg       S12 dB        S12 Deg       S22 dB        S22 Deg       
10000000      -1.5753911    -19.6253204   28.4102898    169.6166992   -36.0154686   72.3017426    -6.7103581    -25.9342098   
20000000      -3.0450900    -28.9545193   27.4486008    164.4530029   -32.2771301   43.2571716    -8.3734446    -41.5748405   
30000000      -4.4701500    -33.2959785   26.7324696    162.7882996   -30.7715302   35.8479385    -10.4617901   -50.0434494   
40000000      -5.5163832    -35.0188408   26.2778397    161.9526062   -30.3914795   29.0481205    -12.2957802   -54.2668114   
50000000      -6.2073712    -36.5411987   25.9998608    161.2902069   -29.5956306   29.3252506    -13.6303196   -56.4127693   
60000000      -6.7660851    -36.6769905   25.7448692    160.6976013   -29.6361198   23.1632900    -14.9297504   -57.4142303   
70000000      -7.1076179    -38.1035385   25.5925808    159.6022949   -29.6055698   25.0532398    -15.8828201   -58.5986595   
80000000      -7.3978219    -39.3658714   25.4500408    158.4205017   -29.5654907   24.2924004    -16.6972103   -58.8155403   
90000000      -7.6526589    -40.8322411   25.3285599    157.1829987   -29.4200497   24.3541794    -17.4379406   -59.0002289   
100000000     -7.8364701    -42.3659706   25.2163506    155.8450012   -29.2737598   24.8217201    -18.0452595   -59.2802200   
110000000     -7.9782100    -44.0642509   25.1078796    154.4225006   -29.1322803   24.4611206    -18.6271496   -59.1531296   
120000000     -8.1198053    -45.8295517   25.0070591    153.0814056   -29.0465603   25.3255997    -19.1142101   -59.4171486   
130000000     -8.2721167    -47.9381485   24.8871803    151.6575928   -29.2424107   25.4379997    -19.6179295   -59.2120399   
140000000     -8.3727913    -49.5961189   24.7760105    150.2453003   -28.8233109   26.5674095    -19.9877892   -60.2066803   
150000000     -8.5510721    -51.6527901   24.6616898    148.8717957   -28.7252998   28.1198292    -20.4491501   -60.8769913   
160000000     -8.6299343    -53.4958992   24.5467701    147.4644928   -28.6036491   27.7149296    -20.7310791   -60.9215889   
170000000     -8.7380009    -55.4068718   24.4319191    146.1286011   -28.6781406   28.4337902    -21.0361595   -60.7785301   
180000000     -8.8488007    -57.3140793   24.3188000    144.7566071   -28.5427799   29.7923107    -21.4175606   -61.0297890   
190000000     -8.9319944    -59.3035316   24.2002907    143.4566956   -28.2463093   30.1949406    -21.6071701   -61.4911308   
200000000     -9.0570574    -61.2586708   24.0728798    142.1109924   -28.2382107   30.7759495    -21.9879303   -62.0832901   
210000000     -9.1523123    -63.1891289   23.9474602    140.8628998   -28.0798206   31.2098198    -22.2768002   -61.5781517   
220000000     -9.2379808    -65.3111725   23.8258495    139.5989075   -27.8984509   32.3822708    -22.5917797   -63.2227898   
230000000     -9.3228922    -67.0924835   23.7059402    138.3867950   -27.8119698   32.9086609    -22.7731304   -63.0759811   
240000000     -9.4461966    -68.8978195   23.5736599    137.1576996   -27.6926899   33.5965309    -23.1914597   -63.5972214   
250000000     -9.5263233    -70.6051178   23.4529495    135.9317017   -27.5737991   34.1947784    -23.3858795   -64.1748123   
260000000     -9.6288567    -72.6813431   23.3227997    134.7785950   -27.4053497   35.0113602    -23.6691895   -64.3489380   
270000000     -9.7111406    -74.4083176   23.1946697    133.6206970   -27.2490501   34.7105103    -23.9047699   -65.4123535   
280000000     -9.8058710    -76.3668213   23.0718098    132.5352020   -27.2468109   35.9500198    -24.1715794   -65.7136993   
290000000     -9.8977737    -77.9439163   22.9435196    131.4075928   -27.1257305   36.3250389    -24.4874992   -65.9856720   
300000000     -9.9271984    -79.8035812   22.8118496    130.3314972   -27.0665703   37.3795700    -24.5482807   -67.1983414   
310000000     -10.0397701   -81.5231323   22.6945210    129.2989044   -26.9246502   37.3110085    -24.7950001   -67.0556793   
320000000     -10.1127501   -83.2492828   22.5616703    128.2548065   -26.6889496   37.8806000    -25.0303402   -68.0832596   
330000000     -10.1846399   -84.8709717   22.4354992    127.2582016   -26.6907196   38.4179192    -25.3530197   -68.3601379   
340000000     -10.2718897   -86.4508133   22.3131199    126.2705002   -26.4700108   39.0060081    -25.5299397   -68.3825073   
350000000     -10.3128996   -88.1548386   22.1838608    125.3233032   -26.3461094   39.6440315    -25.6959095   -68.5929565   
360000000     -10.4139204   -89.5974274   22.0583401    124.3693008   -26.2690201   40.0364685    -25.9692707   -68.9733810   
370000000     -10.4881096   -91.2386703   21.9346199    123.4231033   -26.2521496   40.4897995    -26.1064091   -69.9638214   
380000000     -10.5461302   -92.6304703   21.8067799    122.5298996   -26.0723991   40.8870811    -26.3759308   -69.5961227   
390000000     -10.6210899   -94.3435669   21.6821899    121.6053009   -25.9643707   41.2476807    -26.5129299   -70.7115402   
400000000     -10.6864004   -95.7618332   21.5663204    120.7565002   -25.8580608   41.7203789    -26.8804092   -70.5317688   
410000000     -10.7431898   -97.4393234   21.4375000    119.8971024   -25.6593609   42.0641594    -27.1427898   -71.2333908   
420000000     -10.7743397   -98.6695709   21.3241005    119.0541000   -25.6411304   42.4306717    -27.2966595   -71.7161865   
430000000     -10.8534803   -100.2051010  21.2016106    118.2192001   -25.5191097   42.6982613    -27.4953308   -71.5133820   
440000000     -10.9210901   -101.7871017  21.0816593    117.3655014   -25.4009609   42.9927101    -27.7767906   -71.3994370   
450000000     -11.0822897   -102.8671036  20.9412804    116.6121979   -25.2615108   43.4622307    -28.0070210   -65.9608994   
460000000     -11.0725698   -103.9417038  20.8279495    115.9131012   -25.1310806   44.0909996    -27.7055607   -69.5406113   
470000000     -11.1103802   -105.2382965  20.7136192    115.1734009   -25.0867004   44.1786995    -27.9987392   -70.3981094   
480000000     -11.1367598   -106.4225998  20.6014900    114.4231033   -24.9590206   44.3246994    -28.3547001   -70.7197266   
490000000     -11.1910000   -107.8249969  20.4828606    113.7009964   -24.8308601   45.1508598    -28.6172009   -70.4142685   
500000000     -11.2556896   -108.9978027  20.3695107    112.9826965   -24.7376900   45.1022682    -28.6347504   -71.0976334   
510000000     -11.2913599   -110.2412033  20.2575302    112.2317963   -24.5905609   45.1702118    -28.8297596   -71.8078384   
520000000     -11.3189602   -111.3662033  20.1472607    111.5696030   -24.4958591   45.5766411    -29.0659599   -70.9427719   
530000000     -11.3653402   -112.5345001  20.0401592    110.8619995   -24.3779907   45.8936501    -29.0950508   -70.3104324   
540000000     -11.4178696   -113.6294022  19.9274197    110.1865005   -24.2978592   45.9679909    -29.3320808   -71.5890503   
550000000     -11.4612103   -114.8225021  19.8145809    109.5631027   -24.2178802   46.2410889    -29.5473499   -71.9967270   
560000000     -11.5020103   -116.0139008  19.7094307    108.8900986   -24.1099606   46.4367905    -29.6117306   -72.0072327   
570000000     -11.5436602   -117.1414032  19.5981407    108.2556000   -24.0216103   46.7378998    -29.7038803   -73.5121231   
580000000     -11.5762796   -118.2630005  19.4968491    107.6240997   -23.9153500   47.1110992    -29.9203796   -73.3759766   
590000000     -11.5960903   -119.2665024  19.3913994    107.0165024   -23.7906799   47.2486305    -29.8556404   -73.4141617   
600000000     -11.6459503   -120.2205963  19.2844391    106.3877029   -23.7227707   47.5861397    -30.0631294   -73.6685410   
610000000     -11.6544905   -121.3531036  19.1768894    105.7736969   -23.6312408   47.3269882    -30.1321106   -75.3645706   
620000000     -11.6934099   -122.3228989  19.0773201    105.2232971   -23.5370693   47.6248398    -30.3813591   -73.0092316   
630000000     -11.7304096   -123.2853012  18.9729195    104.6248016   -23.3748093   47.8916397    -30.3818607   -74.9804688   
640000000     -11.7612801   -124.2856979  18.8749199    104.0790024   -23.3239594   47.7940903    -30.5959301   -75.0717010   
650000000     -11.7743502   -125.1975021  18.7758694    103.4936981   -23.2470608   48.2774506    -30.6051292   -75.2134933   
660000000     -11.8127403   -126.2250977  18.6730003    102.9104996   -23.1307106   48.1340408    -30.5478191   -75.3511963   
670000000     -11.8491802   -127.1899033  18.5762100    102.3552017   -23.0382805   48.4648895    -30.6889496   -75.7704773   
680000000     -11.8644695   -128.2252045  18.4775791    101.8078003   -22.9585609   48.5829391    -30.9912701   -76.5014420   
690000000     -11.8885899   -129.1804047  18.3816795    101.2795029   -22.8563805   48.6307793    -31.0669994   -76.0273514   
700000000     -11.9154997   -130.1259003  18.2859306    100.7408981   -22.7765293   48.8049393    -31.1963406   -78.0691299   
710000000     -11.9450998   -131.0545959  18.1837196    100.2008972   -22.6816196   48.9326515    -31.3395100   -76.9622803   
720000000     -11.9579401   -131.7886047  18.0893192    99.7036133    -22.5998306   49.1201096    -31.5388298   -76.4960022   
730000000     -11.9712200   -132.8657990  18.0003300    99.1649017    -22.4887409   49.1791000    -31.8151093   -78.2574768   
740000000     -12.0235796   -133.7758942  17.9015102    98.6593933    -22.4293404   49.4834709    -31.8175297   -77.6562729   
750000000     -12.0400400   -134.5527039  17.8106804    98.2337189    -22.3562603   49.4802017    -31.7129803   -76.2245178   
760000000     -12.0741901   -135.4963989  17.7200108    97.6766129    -22.2604809   49.3580208    -32.0270882   -75.7199936   
770000000     -12.0878000   -135.9409027  17.6274891    97.2525024    -22.1486092   49.7394218    -31.7053909   -75.2906799   
780000000     -12.0607700   -136.7687988  17.5449009    96.7736282    -22.0764408   49.7754211    -31.7207108   -76.2051620   
790000000     -12.0747805   -137.6730042  17.4529591    96.2760468    -21.9959393   49.7399216    -31.9986801   -77.2448578   
800000000     -12.1109200   -138.4329071  17.3644199    95.8058167    -21.9072094   49.6722717    -32.0892906   -77.2747421   
810000000     -12.1252203   -139.1237030  17.2735405    95.3572235    -21.8112602   50.0328407    -31.9333496   -77.2714233   
820000000     -12.1345301   -139.8338928  17.1897697    94.9420624    -21.7267208   50.0525703    -32.0834808   -79.6421585   
830000000     -12.1339798   -140.6670990  17.1091003    94.4318085    -21.6435795   49.9786911    -32.0753593   -80.1444397   
840000000     -12.1475296   -141.4136963  17.0278893    93.9903564    -21.5833397   49.9426918    -32.2983398   -80.7832565   
850000000     -12.1250200   -142.3666992  16.9374809    93.4628220    -21.5267506   49.8718796    -32.6716805   -78.5739594   
860000000     -12.2010698   -142.9743042  16.8416405    93.1033936    -21.4205894   50.1844292    -32.2682190   -77.2372513   
870000000     -12.2403698   -143.3482971  16.7611599    92.7613907    -21.3539391   50.3110199    -32.2500381   -76.2797775   
880000000     -12.2148199   -143.8408051  16.6939201    92.3166428    -21.2545605   50.2284203    -32.0315590   -77.5877228   
890000000     -12.2176504   -144.5326996  16.6072502    91.8545914    -21.1716595   50.3632393    -32.1302185   -79.2376175   
900000000     -12.2347403   -145.3529053  16.5262299    91.4266968    -21.1172009   50.3726883    -32.2381783   -80.8650818   
910000000     -12.2382402   -145.8298035  16.4519997    91.0150528    -21.0466404   50.2782784    -32.1974487   -80.0201569   
920000000     -12.2379198   -146.3435974  16.3688793    90.5972900    -20.9241199   50.2348709    -32.1716690   -80.6229172   
930000000     -12.2787704   -147.2644958  16.2975903    90.1755981    -20.8784409   50.4213982    -32.1181602   -81.4460831   
940000000     -12.2759504   -147.9087067  16.2159691    89.7664032    -20.7955608   50.4440117    -32.3040390   -81.0540771   
950000000     -12.2759304   -148.4309998  16.1399498    89.3539734    -20.7175293   50.2803116    -32.2564812   -81.5314636   
960000000     -12.2747402   -149.1488037  16.0651302    88.9279633    -20.6543503   50.3486404    -32.4311104   -82.1825867   
970000000     -12.3097696   -149.7248993  15.9862204    88.5230103    -20.5644493   50.4713516    -32.2610703   -83.2545471   
980000000     -12.2986498   -150.4624939  15.9132996    88.1361237    -20.5101700   50.5353699    -32.4083290   -83.5267181   
990000000     -12.3188801   -150.9333038  15.8362598    87.7192764    -20.4478607   50.3890991    -32.4426498   -83.3390884   
1000000000    -12.3101902   -151.6598969  15.7629099    87.3625793    -20.3717499   50.4528503    -32.5885696   -84.2000198   
1025000000    -12.3416595   -153.0811005  15.5833902    86.3818436    -20.1657009   50.3747711    -32.4015808   -84.2222137   
1050000000    -12.3466501   -154.5726929  15.4058800    85.4534988    -20.0146904   50.2721100    -32.6736183   -86.1933975   
1075000000    -12.3587999   -155.9662933  15.2272396    84.4968185    -19.8584709   50.2583008    -32.8231812   -86.1548233   
1100000000    -12.3943195   -157.3437042  15.0582800    83.5888290    -19.6729298   50.2408600    -32.6237411   -87.3908997   
1125000000    -12.3705301   -158.6748047  14.8889303    82.7123184    -19.5198193   50.1597290    -32.9063492   -88.3140793   
1150000000    -12.3810997   -159.8027039  14.7258196    81.8212128    -19.3514309   49.9407387    -32.7174797   -88.9828033   
1175000000    -12.3723898   -161.2409973  14.5650301    80.9552536    -19.1999207   49.9909210    -32.4948387   -90.6461105   
1200000000    -12.3833904   -162.2996979  14.4075499    80.1082077    -19.0072098   49.8794289    -32.3175011   -92.7953415   
1225000000    -12.3784904   -163.4528046  14.2540503    79.2458115    -18.8855305   49.6578789    -32.2094498   -93.3398132   
1250000000    -12.3767500   -164.6770935  14.0972204    78.4054794    -18.7092400   49.4380417    -32.2517700   -95.2878571   
1275000000    -12.3878298   -165.7131958  13.9465199    77.5545883    -18.5771599   49.4028282    -32.1892204   -97.7770386   
1300000000    -12.3664598   -166.8002014  13.8018703    76.7445068    -18.4293900   49.1433907    -32.1695290   -97.8127670   
1325000000    -12.3544397   -168.0482941  13.6588402    75.9124527    -18.2974796   48.9208183    -32.3542900   -98.7813187   
1350000000    -12.3690596   -168.9694977  13.5159903    75.1447067    -18.1796207   48.8800888    -31.9734993   -98.8542480   
1375000000    -12.3860798   -169.8572998  13.3802099    74.3886566    -18.0349903   48.6401711    -32.0579491   -100.3438034  
1400000000    -12.3613005   -170.9808960  13.2438002    73.5882263    -17.8637009   48.2950783    -31.7657509   -99.4738464   
1425000000    -12.3506298   -171.8128052  13.1094799    72.8089371    -17.7715492   48.1764793    -31.7149792   -100.8935013  
1450000000    -12.3572302   -172.7478027  12.9756699    72.0333405    -17.6140308   48.0103302    -31.5307693   -101.4088974  
1475000000    -12.3799496   -173.4201965  12.8470001    71.2876587    -17.5028191   47.8149300    -31.4181194   -103.4076996  
1500000000    -12.3720798   -174.2888947  12.7205696    70.5151291    -17.3701191   47.5431786    -31.2447300   -103.2739029  
1525000000    -12.3639402   -175.0552979  12.5981302    69.8098068    -17.2409401   47.3631516    -31.2345695   -102.6769028  
1550000000    -12.3970804   -176.1018982  12.4758701    69.0380402    -17.1242294   46.9868011    -30.7091694   -102.5389023  
1575000000    -12.3840399   -176.8641968  12.3553896    68.3083496    -16.9947300   46.8070107    -30.6129704   -102.4293976  
1600000000    -12.3759699   -177.6186981  12.2305202    67.5603714    -16.8740807   46.4732895    -30.7840805   -104.5487976  
1625000000    -12.3858404   -178.7386932  12.1169004    66.8408737    -16.7712402   46.4759483    -30.5571709   -102.9206009  
1650000000    -12.3828802   -179.3724976  11.9971800    66.1299133    -16.6470699   46.0696907    -30.6238194   -104.4214020  
1675000000    -12.3682804   179.6002045   11.8844004    65.4310226    -16.5306206   45.7209206    -30.3211899   -103.6203003  
1700000000    -12.3850098   179.1011047   11.7667198    64.7525330    -16.4375591   45.6565819    -30.4433708   -103.2949982  
1725000000    -12.3821001   178.2805023   11.6680498    64.0479965    -16.2911491   45.3074684    -29.9279308   -104.1193008  
1750000000    -12.3806400   177.7604980   11.5552397    63.3119698    -16.2000694   44.9770508    -29.9638004   -104.8505020  
1775000000    -12.4090900   176.9199982   11.4476900    62.6381302    -16.0836391   44.7913399    -29.6293697   -104.0320969  
1800000000    -12.3822803   176.3150024   11.3432798    61.9697990    -15.9769602   44.4019089    -29.5972309   -103.7379990  
1825000000    -12.4221001   175.5812988   11.2401104    61.2577705    -15.8913698   44.0620613    -29.4465294   -104.5561981  
1850000000    -12.4423904   175.0650940   11.1382799    60.6065407    -15.7729902   43.8034706    -29.0758305   -104.2664032  
1875000000    -12.4552498   174.4427032   11.0428104    59.9162788    -15.6677399   43.5564690    -29.0079403   -103.0916977  
1900000000    -12.4725399   173.7799988   10.9406204    59.2583084    -15.5677204   43.1058807    -28.8213501   -104.7863007  
1925000000    -12.5153103   172.7915039   10.8438902    58.5383110    -15.4750900   42.9226303    -28.6030693   -104.6501999  
1950000000    -12.4923601   172.3468018   10.7541199    57.8824883    -15.3788500   42.6340790    -28.4347897   -104.1917038  
1975000000    -12.4948196   171.5915070   10.6553402    57.2248116    -15.3057299   42.1421890    -28.3642502   -104.7020035  
2000000000    -12.4951696   170.9980927   10.5655003    56.5506516    -15.1826000   41.9002686    -28.1709499   -104.4959030  
2025000000    -12.5169296   170.3860931   10.4658699    55.9048119    -15.0891304   41.5871811    -28.0042305   -104.5942001  
2050000000    -12.5047503   169.8753052   10.3765202    55.2227592    -14.9980202   41.2377815    -27.8280907   -103.6813965  
2075000000    -12.5423899   169.0771942   10.2829103    54.6201286    -14.9229498   40.9044800    -27.8269291   -102.5155029  
2100000000    -12.5586700   168.7369995   10.1988897    53.9717102    -14.8137999   40.5461388    -27.3570404   -101.9906998  
2125000000    -12.5588598   168.4586029   10.1156101    53.2966919    -14.7002602   40.2184792    -27.1749401   -102.2203979  
2150000000    -12.6056099   167.7671967   10.0314102    52.6470299    -14.6242399   39.8886604    -26.9718609   -102.7520981  
2175000000    -12.6233501   167.1981964   9.9406881     51.9668198    -14.5192003   39.5125694    -27.0528603   -104.0018005  
2200000000    -12.6475000   166.5328979   9.8634968     51.3730202    -14.4560900   39.2014809    -26.6470203   -102.8681030  
2225000000    -12.6759996   165.9367065   9.7840195     50.7297897    -14.3625603   38.8575287    -26.6166401   -103.1317978  
2250000000    -12.6512604   165.3419952   9.7015076     50.0344315    -14.2756701   38.4289818    -26.3932800   -102.2661972  
2275000000    -12.6827698   164.8258057   9.6184454     49.4266205    -14.2008200   38.0691605    -26.2301998   -102.5384979  
2300000000    -12.7783203   164.2879944   9.5341511     48.8773918    -14.1374998   37.8947105    -26.2197094   -101.4717026  
