!Mini-Circuits Laboratory
!S-Parameters, Port extension performed
!Model: PGA-103+
!Run / Lot / Date Code: N/A / BP170-001-01-101EV / 1210
!Fixture: TB-313
!Network Analyzer: PNA-X N5242A - 423 4 ports;  Serial number: 71013
!Date: 5/24/2012 at 5:33:09 PM
!S/N: Unit# 1
!Tested with: Vdd=2.7V at 85C
!
# Hz  S  dB  R  50
!Frequency    S11 dB        S11 Deg       S21 dB        S21 Deg       S12 dB        S12 Deg       S22 dB        S22 Deg       
10000000      -1.2552260    -17.6834202   27.5500908    170.3168945   -37.9171486   57.2533112    -5.8108039    -24.0620499   
20000000      -2.8993680    -25.4089699   26.7406406    166.0074005   -32.5087395   43.4620590    -8.0002594    -35.5545197   
30000000      -4.1504359    -28.4765301   26.1282997    164.5675049   -31.0333595   35.8140717    -9.8599329    -40.9098396   
40000000      -4.9823742    -29.7740707   25.7539806    163.7079010   -30.5125408   29.6162891    -11.3686600   -42.8382111   
50000000      -5.4121318    -30.8787308   25.5275707    162.9487000   -30.3994598   30.8878002    -12.3465796   -43.6986008   
60000000      -5.9495602    -31.8316307   25.3116207    162.2621002   -29.5538406   27.2576809    -13.4040203   -43.3848801   
70000000      -6.2143159    -32.9410896   25.1872597    161.0574951   -29.6202297   25.1765709    -13.9741802   -43.3117409   
80000000      -6.4473710    -34.3566093   25.0666409    159.7700958   -29.5856895   25.5659294    -14.5572701   -43.2042503   
90000000      -6.6420841    -35.9797401   24.9601307    158.4403076   -29.3752594   25.6050491    -15.0120201   -43.1564102   
100000000     -6.7884378    -37.7102585   24.8614006    157.0283051   -29.2761898   26.2409897    -15.4047499   -43.4436493   
110000000     -6.9126801    -39.4029503   24.7614307    155.5263977   -29.1970406   26.8161602    -15.7697401   -43.5769196   
120000000     -7.0412192    -41.5410881   24.6699200    154.1286926   -28.9886894   26.7796001    -16.0419407   -44.4022293   
130000000     -7.1309428    -43.4964104   24.5569706    152.6687927   -29.4627094   25.7767696    -16.2893105   -44.4905701   
140000000     -7.2482462    -45.5324516   24.4516106    151.1862030   -28.7259693   27.4807205    -16.5583000   -45.3542213   
150000000     -7.4083319    -47.8177414   24.3430595    149.7590027   -28.6726208   29.1739693    -16.8992405   -46.7223587   
160000000     -7.4973769    -49.8058510   24.2327003    148.3164063   -28.5469494   29.4559193    -17.1021709   -47.0425110   
170000000     -7.5803838    -51.7983398   24.1186199    146.9418030   -28.4045105   29.9114208    -17.2821808   -47.7247696   
180000000     -7.6689239    -53.6450806   24.0039406    145.5276031   -28.1811790   30.9641399    -17.4526005   -48.4575996   
190000000     -7.7567129    -55.6827087   23.8865700    144.1972961   -28.0490208   31.9925709    -17.6480198   -48.8390694   
200000000     -7.8605571    -57.6055298   23.7620697    142.8435059   -28.0646496   32.8633919    -17.8163300   -50.0703087   
210000000     -7.9618511    -59.5383606   23.6369400    141.5794067   -27.8277302   32.9491081    -18.0214405   -50.4499588   
220000000     -8.0345097    -61.5722809   23.5182304    140.2947998   -27.7977600   34.6331291    -18.2002907   -52.0868301   
230000000     -8.1172981    -63.4322510   23.3970299    139.0653992   -27.6408997   33.6450806    -18.3628101   -52.6318016   
240000000     -8.2297544    -65.1941299   23.2670498    137.8303070   -27.5193691   34.6276817    -18.5408592   -53.2500305   
250000000     -8.3117733    -66.9531937   23.1458607    136.5897980   -27.4440498   35.7747803    -18.6962299   -54.3855591   
260000000     -8.4068403    -68.8030624   23.0173206    135.4230042   -27.2286205   36.2424202    -18.8806305   -55.1086311   
270000000     -8.4867554    -70.4773331   22.8906193    134.2713013   -27.0999107   36.3596992    -18.9723892   -56.0567894   
280000000     -8.5721560    -72.2627335   22.7701607    133.1876984   -26.9792995   36.6826591    -19.0766792   -56.8975410   
290000000     -8.6775112    -73.7882309   22.6423092    132.0346985   -26.8274403   37.5720482    -19.2227001   -57.9333191   
300000000     -8.7403641    -75.5264664   22.5140591    130.9766998   -26.7513905   37.7006989    -19.2759094   -58.9454994   
310000000     -8.8446074    -77.1688309   22.3959599    129.9324036   -26.5762596   38.4420891    -19.4084301   -59.6306915   
320000000     -8.9283361    -78.8327332   22.2661095    128.8834991   -26.4659004   38.9198112    -19.5085106   -60.7710114   
330000000     -9.0326309    -80.3867264   22.1402302    127.8643036   -26.3287201   39.5170212    -19.6905308   -61.2733383   
340000000     -9.1086483    -81.9731369   22.0190601    126.8836975   -26.3305893   40.2506790    -19.8402195   -61.7210083   
350000000     -9.1748590    -83.5499496   21.8895092    125.9216995   -26.1345692   40.0773315    -19.8989697   -62.4060707   
360000000     -9.2626877    -85.1018372   21.7684803    124.9673996   -26.0226707   40.3302002    -20.0475006   -62.9129715   
370000000     -9.3557158    -86.7274094   21.6452808    124.0070038   -25.9015007   40.7607307    -20.1715908   -64.3209534   
380000000     -9.4247456    -88.1044235   21.5183792    123.1145020   -25.7412491   41.4337997    -20.2872295   -64.2945633   
390000000     -9.5040445    -89.7991714   21.3929806    122.1579971   -25.6239796   41.6600304    -20.4395103   -65.4964600   
400000000     -9.5906563    -91.2594299   21.2771797    121.3013992   -25.5206203   42.1749306    -20.6194801   -65.7039413   
410000000     -9.6367531    -92.8495636   21.1495094    120.4387970   -25.4886799   42.8896790    -20.8617096   -66.6203766   
420000000     -9.6769791    -94.2596664   21.0361805    119.5923996   -25.3545208   42.6567383    -20.9494991   -67.0669403   
430000000     -9.7471371    -95.7987213   20.9125500    118.7441025   -25.2423000   43.0088692    -21.1296997   -67.7323837   
440000000     -9.8015385    -97.5050125   20.7973194    117.8699036   -25.0879307   42.9901199    -21.3638992   -68.5904388   
450000000     -9.9760237    -98.2571182   20.6457100    117.1465988   -25.1346493   44.3355217    -21.4507408   -65.8094635   
460000000     -9.9533119    -99.5997391   20.5379200    116.4070969   -24.9581699   44.3634415    -21.4623299   -67.9905319   
470000000     -10.0015202   -100.9386978  20.4214497    115.6657028   -24.7997704   44.4913902    -21.6555004   -68.4013367   
480000000     -10.0379295   -102.1252975  20.3065395    114.9185028   -24.6223392   44.9716415    -21.7879105   -68.5548172   
490000000     -10.0887203   -103.4017029  20.1867599    114.2071991   -24.5603905   44.7803917    -22.1180096   -69.4389877   
500000000     -10.1185503   -104.5892029  20.0750999    113.4785004   -24.4552498   45.1520691    -22.1693802   -69.6901321   
510000000     -10.1601400   -105.8639984  19.9607391    112.7253036   -24.3920708   45.3823204    -22.3791294   -70.6521378   
520000000     -10.1921101   -106.9173965  19.8491993    112.0759964   -24.2453899   45.7763405    -22.5101109   -69.7752838   
530000000     -10.2421799   -107.9767990  19.7409401    111.3994980   -24.1472797   45.9638710    -22.6150303   -70.3417969   
540000000     -10.2915297   -109.1020966  19.6283607    110.7114029   -24.0302200   46.3211899    -22.7478199   -71.3656998   
550000000     -10.3355598   -110.1362991  19.5157604    110.0889969   -23.9840393   46.5563812    -22.9451599   -71.4334869   
560000000     -10.3876400   -111.2967987  19.4110794    109.4392014   -23.9270592   46.4535789    -22.9833393   -72.3037262   
570000000     -10.4173899   -112.2509003  19.2996597    108.7904968   -23.7552891   46.7364693    -23.1321507   -72.6414795   
580000000     -10.4698000   -113.3821030  19.1971798    108.1547012   -23.6624107   47.3549385    -23.2593498   -73.3261414   
590000000     -10.5013905   -114.3716965  19.0907307    107.5559998   -23.5788498   47.5071907    -23.3131294   -73.8653717   
600000000     -10.5631399   -115.2981033  18.9848194    106.9445038   -23.4699402   47.3778992    -23.3997707   -74.3602829   
610000000     -10.5782604   -116.3567963  18.8780899    106.3335037   -23.3950291   47.6146317    -23.4897594   -75.4718170   
620000000     -10.6342802   -117.2406006  18.7789192    105.7733002   -23.2936096   47.7143288    -23.6154995   -75.4994888   
630000000     -10.6808796   -118.3098984  18.6738205    105.1780014   -23.1692905   48.1030617    -23.6715508   -76.1945038   
640000000     -10.7318497   -119.1997986  18.5751305    104.6513977   -23.1174107   48.0922585    -23.7215309   -77.2901535   
650000000     -10.7662201   -120.2203979  18.4788399    104.0615005   -23.0311794   48.4065704    -23.6891994   -77.5725632   
660000000     -10.8137999   -121.2832031  18.3760891    103.4769974   -22.9464607   48.4454498    -23.7433491   -78.5658569   
670000000     -10.8584499   -122.2229996  18.2796898    102.9276962   -22.8019104   48.6347504    -23.7932491   -79.2830124   
680000000     -10.8998699   -123.3999023  18.1802006    102.3762970   -22.7297096   48.5854492    -23.9121609   -80.1110382   
690000000     -10.9296598   -124.2882996  18.0834808    101.8542023   -22.6763401   48.6317406    -23.9954891   -80.2914734   
700000000     -10.9764795   -125.2060013  17.9858704    101.3078003   -22.5788708   48.7816391    -24.0739098   -81.3171387   
710000000     -10.9814100   -126.3159027  17.8896008    100.7574997   -22.4885292   49.1226997    -24.1172905   -82.0227737   
720000000     -11.0451698   -126.9876022  17.7866497    100.2685013   -22.4071407   49.3683701    -24.3034496   -82.0330505   
730000000     -11.0594797   -128.0576019  17.6979103    99.7514191    -22.3251495   49.0968018    -24.3778896   -83.0952072   
740000000     -11.1178198   -129.0986938  17.6016197    99.2113037    -22.2598209   49.3610497    -24.4067097   -83.4236984   
750000000     -11.1427498   -129.8309937  17.5066509    98.8051605    -22.1231194   49.5725784    -24.3765907   -82.9898834   
760000000     -11.1582699   -130.7705994  17.4199009    98.2653580    -22.0748806   49.6194992    -24.4632397   -83.4192963   
770000000     -11.1806698   -131.4232941  17.3226509    97.8151627    -21.9293194   49.5932388    -24.4512501   -83.4402771   
780000000     -11.1713896   -132.1595001  17.2383900    97.3626480    -21.8761806   49.6590691    -24.5432091   -83.7799301   
790000000     -11.1850996   -133.1230011  17.1443806    96.8574066    -21.8093605   49.8125381    -24.6646900   -83.9171829   
800000000     -11.2229099   -133.6869965  17.0520000    96.4023132    -21.7390709   50.0685806    -24.6489296   -84.0746613   
810000000     -11.2308102   -134.3253021  16.9653206    95.9783478    -21.6406498   50.0183105    -24.6888103   -84.2976913   
820000000     -11.2425203   -134.9712067  16.8806705    95.5547485    -21.5673695   49.9780807    -24.8193893   -85.2349930   
830000000     -11.2529697   -135.7572021  16.7966709    95.0731277    -21.4971008   49.9607887    -24.8681202   -85.2996674   
840000000     -11.2654600   -136.3477936  16.7158508    94.6367874    -21.4278793   49.8097000    -24.9004993   -85.4162369   
850000000     -11.2384195   -137.3914948  16.6242905    94.0946503    -21.3514404   49.9836807    -25.1305008   -84.3156967   
860000000     -11.3376398   -137.8079071  16.5242691    93.7742615    -21.3033905   50.3605118    -25.1260109   -83.1382599   
870000000     -11.3581495   -137.8587036  16.4531994    93.4426727    -21.1885891   50.6756706    -24.9251404   -82.3052368   
880000000     -11.3623199   -138.5061035  16.3784008    92.9935303    -21.0958691   50.2752800    -24.9703503   -83.1608734   
890000000     -11.3759403   -139.0737000  16.2918701    92.5729065    -20.9913101   50.4917908    -25.0690708   -83.5522537   
900000000     -11.3954201   -139.7525940  16.2128105    92.1388474    -20.9712105   50.5365410    -25.0828400   -83.7955017   
910000000     -11.4093199   -140.1627960  16.1403599    91.7522202    -20.8732700   50.5350189    -25.1076908   -83.7565079   
920000000     -11.4174604   -140.6271057  16.0570793    91.3284302    -20.8166103   50.6892509    -25.1902504   -83.6790619   
930000000     -11.4675398   -141.3497009  15.9835501    90.9161835    -20.7205696   50.5987396    -25.1141109   -83.9556503   
940000000     -11.4777498   -141.9385071  15.9041796    90.5085983    -20.6614304   50.6140289    -25.2605495   -83.7416611   
950000000     -11.4897499   -142.4452057  15.8273296    90.1192474    -20.5622997   50.5240211    -25.2431908   -83.8863068   
960000000     -11.5089102   -143.0821991  15.7547503    89.7020874    -20.4929295   50.6740799    -25.3458309   -83.9199829   
970000000     -11.5471001   -143.6452942  15.6761904    89.2929306    -20.4150295   50.8196297    -25.3586693   -84.4158173   
980000000     -11.5658102   -144.4553986  15.6025000    88.9108887    -20.3812199   50.6828194    -25.3988895   -84.9401932   
990000000     -11.5910101   -144.9320068  15.5278101    88.4973984    -20.2702293   50.5948410    -25.4555607   -85.1247482   
1000000000    -11.5898399   -145.6309052  15.4524403    88.1473999    -20.2213192   50.7686310    -25.6012402   -85.1257782   
1025000000    -11.6271601   -147.2501068  15.2739201    87.1802216    -20.0635204   50.6810417    -25.6501503   -86.4581528   
1050000000    -11.6552896   -148.6613007  15.0947599    86.2581482    -19.8741493   50.7702293    -25.9357395   -87.5924530   
1075000000    -11.6778603   -150.5050964  14.9146299    85.2875900    -19.7324505   50.7486610    -26.1255894   -88.1546631   
1100000000    -11.6938200   -151.6741028  14.7464705    84.4340134    -19.5409107   50.6484909    -26.0862904   -90.0254364   
1125000000    -11.6763401   -153.0160980  14.5718899    83.5602722    -19.4120197   50.5500793    -26.2747898   -90.8134766   
1150000000    -11.6811600   -154.0684052  14.4131002    82.7093277    -19.2225094   50.5228691    -26.2563801   -91.6050797   
1175000000    -11.6868200   -155.3995056  14.2510405    81.8554688    -19.0771198   50.4463081    -26.2281094   -92.6668167   
1200000000    -11.7114401   -156.4306946  14.0909595    81.0292816    -18.9269295   50.3237801    -26.1962509   -93.8348770   
1225000000    -11.7447205   -157.4956055  13.9384899    80.1965332    -18.7915707   50.2291794    -26.1321793   -93.3286285   
1250000000    -11.7807503   -158.6620941  13.7801800    79.3844604    -18.6105995   50.0737686    -26.0694408   -94.2018890   
1275000000    -11.8383102   -159.6701965  13.6309004    78.5417328    -18.4808407   49.9510117    -26.0252609   -95.7072067   
1300000000    -11.8592701   -160.8052063  13.4883003    77.7542267    -18.3704109   49.8455505    -25.9320908   -95.1460571   
1325000000    -11.8656702   -162.1356964  13.3429298    76.9405594    -18.2240601   49.5960197    -26.0033302   -95.7917099   
1350000000    -11.8896303   -163.1540985  13.2000198    76.1752701    -18.0757294   49.5707207    -25.9542904   -96.0842667   
1375000000    -11.9023399   -164.1347046  13.0633497    75.4302368    -17.9514599   49.3634796    -25.9996891   -96.8520966   
1400000000    -11.8760700   -165.2319031  12.9255896    74.6426010    -17.7902699   49.1422806    -26.0736103   -96.5277710   
1425000000    -11.8562603   -166.1051025  12.7900696    73.8823471    -17.6878700   49.0027008    -26.1806793   -97.0219269   
1450000000    -11.8400097   -166.8618927  12.6533403    73.1401596    -17.5397301   48.8836784    -26.3103104   -97.2041092   
1475000000    -11.8652496   -167.4179993  12.5239401    72.4274368    -17.4212608   48.6334381    -26.3404808   -98.6178131   
1500000000    -11.8389101   -168.1309052  12.3974600    71.6815338    -17.2818604   48.4319916    -26.4003906   -98.1511765   
1525000000    -11.8433704   -168.7743073  12.2745895    71.0009766    -17.1677494   48.2748108    -26.4268303   -98.1464615   
1550000000    -11.8837404   -169.6508942  12.1557302    70.2541199    -17.0310707   48.0400810    -26.2931709   -98.1462326   
1575000000    -11.9089499   -170.4763947  12.0330296    69.5402527    -16.9299793   47.9119415    -26.2170696   -98.7541580   
1600000000    -11.9292297   -171.2142029  11.9107704    68.8164291    -16.8170795   47.6072388    -26.3009892   -99.8633728   
1625000000    -11.9789495   -172.4060974  11.7980700    68.1061783    -16.6924305   47.3268204    -26.1048794   -100.7182007  
1650000000    -11.9945698   -173.2928925  11.6784296    67.4036026    -16.5712795   47.1340485    -26.0321407   -101.5955963  
1675000000    -12.0024300   -174.5153046  11.5639000    66.7202911    -16.4636497   46.7931213    -25.8685207   -102.1964035  
1700000000    -12.0194197   -175.1195068  11.4451904    66.0655212    -16.3520508   46.7066002    -25.9214001   -102.0500031  
1725000000    -12.0120802   -176.0263062  11.3450499    65.3705063    -16.2360001   46.5481911    -25.5936298   -102.9549026  
1750000000    -12.0001001   -176.7062073  11.2305403    64.6548004    -16.1274204   46.0352402    -25.6009598   -103.4208984  
1775000000    -12.0225401   -177.3925934  11.1214800    64.0127563    -16.0272598   45.9458084    -25.4641209   -102.8534012  
1800000000    -11.9946404   -177.8188934  11.0161800    63.3766518    -15.9247999   45.5936089    -25.5203800   -102.3983994  
1825000000    -12.0177298   -178.4483032  10.9122496    62.6892319    -15.8312998   45.3207512    -25.3941402   -101.9586029  
1850000000    -12.0629997   -178.7229004  10.8127699    62.0631294    -15.7170095   45.1906700    -25.1700897   -101.1136017  
1875000000    -12.0928202   -179.2465057  10.7176304    61.3935089    -15.6091900   45.0243607    -25.1879101   -100.4037018  
1900000000    -12.1486797   -179.7221985  10.6167002    60.7609901    -15.5166197   44.6103592    -25.1477509   -100.6890030  
1925000000    -12.2031603   179.3699951   10.5234098    60.0690498    -15.4307899   44.3511391    -24.9747105   -100.5266037  
1950000000    -12.2241201   178.5375977   10.4317398    59.3992004    -15.3097601   44.0031509    -24.8282509   -101.0738983  
1975000000    -12.2491598   177.6378021   10.3316298    58.7600708    -15.2330103   43.7201004    -24.8528004   -101.7605972  
2000000000    -12.2521696   176.7796021   10.2405396    58.0953598    -15.1333904   43.2609711    -24.8172092   -102.3105011  
2025000000    -12.2561798   176.0166931   10.1416702    57.4559784    -15.0438995   43.1270714    -24.7944508   -103.2574997  
2050000000    -12.2325401   175.1710968   10.0486002    56.7995796    -14.9512100   42.7492409    -24.7325497   -103.6153030  
2075000000    -12.2234497   174.1051941   9.9529858     56.1856995    -14.8712902   42.3268394    -24.7987099   -103.9156036  
2100000000    -12.2120895   173.7462006   9.8672104     55.5731010    -14.7953100   42.0552711    -24.6048908   -103.7494965  
2125000000    -12.2142496   173.6806030   9.7817459     54.9550896    -14.6927500   42.0447502    -24.5263004   -103.8937988  
2150000000    -12.2334805   173.0090942   9.6959219     54.3093491    -14.6140804   41.6216583    -24.4087296   -104.2962036  
2175000000    -12.2549105   172.7149963   9.6037760     53.6791992    -14.5098400   41.3010216    -24.4848709   -104.6715012  
2200000000    -12.2999096   172.1938934   9.5306721     53.0879097    -14.4183903   40.9315987    -24.1161194   -104.2483978  
2225000000    -12.3458700   171.5829926   9.4504690     52.4947205    -14.3545504   40.5974388    -24.0758591   -103.9802017  
2250000000    -12.3669996   170.9826965   9.3689299     51.8023796    -14.2704201   40.2693100    -23.8871593   -103.6050034  
2275000000    -12.4211597   170.3018036   9.2853642     51.2120514    -14.1505699   40.0588188    -23.7522507   -104.0457001  
2300000000    -12.5600700   169.8708038   9.1949825     50.7229385    -14.1255598   39.7466202    -23.8130398   -102.3971024  
