!Mini-Circuits Laboratory
!S-Parameters, Port extension performed
!Model: PGA-103+
!Run / Lot / Date Code: N/A / BP170-001-01-101EV / 1210
!Fixture: TB-313
!Network Analyzer: PNA-X N5242A - 423 4 ports;  Serial number: 71013
!Date: 5/24/2012 at 5:35:59 PM
!S/N: Unit# 1
!Tested with: Vdd=5.25V at 85C
!
# Hz  S  dB  R  50
!Frequency    S11 dB        S11 Deg       S21 dB        S21 Deg       S12 dB        S12 Deg       S22 dB        S22 Deg       
10000000      -1.4245549    -20.0193405   28.6056309    169.1952972   -38.1288795   54.1909599    -5.2219338    -25.2675591   
20000000      -3.3201759    -28.1353703   27.6940193    164.8470001   -32.2914391   42.8207703    -7.6447530    -37.0798492   
30000000      -4.7415581    -31.6648407   27.0238094    163.5030060   -31.4519291   32.9188385    -9.7462463    -42.3079300   
40000000      -5.6868200    -32.9544601   26.6211700    162.7664032   -30.8004208   27.9322395    -11.3947697   -43.7154808   
50000000      -6.2434249    -34.4693298   26.3750000    162.0534973   -30.4439907   29.5415306    -12.5841103   -43.8131218   
60000000      -6.8993149    -34.5761108   26.1495209    161.4420013   -29.7682495   23.9828205    -13.7609501   -42.1043205   
70000000      -7.1630678    -35.5952110   26.0146008    160.2559052   -30.0771408   23.2266407    -14.4499798   -41.0085106   
80000000      -7.4309950    -36.8641014   25.8862991    159.0021973   -29.9900303   23.0616608    -15.1180801   -39.5748405   
90000000      -7.6549721    -38.2840004   25.7729893    157.6885986   -29.8304501   23.1002598    -15.6758099   -38.1982117   
100000000     -7.8221369    -39.9196205   25.6669197    156.2933044   -29.7606792   23.5050907    -16.1014004   -37.0037994   
110000000     -7.9585862    -41.6719284   25.5620499    154.7938995   -29.7708607   24.2310390    -16.4680691   -35.6872406   
120000000     -8.0941982    -43.5249290   25.4636593    153.3878937   -29.5562000   24.0901699    -16.8033791   -35.0161095   
130000000     -8.2333050    -45.2625694   25.3431606    151.9187012   -29.7060299   26.3870201    -17.1250095   -34.1195602   
140000000     -8.3575106    -47.4644585   25.2328091    150.4373932   -29.3479404   25.4592609    -17.3651009   -33.0299683   
150000000     -8.5277081    -49.4438515   25.1184292    149.0119934   -29.2582493   25.0330391    -17.6578598   -32.4600182   
160000000     -8.6191893    -51.3895683   24.9995995    147.5697937   -29.2178307   26.2310104    -17.8945293   -31.5013905   
170000000     -8.6964235    -53.2999611   24.8826904    146.1909027   -29.1332092   26.5559006    -18.0200005   -30.5810108   
180000000     -8.7948132    -55.1331215   24.7646103    144.7891998   -29.0135593   27.7164402    -18.1849308   -30.0647106   
190000000     -8.9013042    -57.0933685   24.6428204    143.4490051   -28.8332195   28.3005600    -18.2851391   -29.5910797   
200000000     -9.0181293    -59.0073090   24.5114594    142.0912933   -28.8581600   28.9523506    -18.4494991   -29.1453800   
210000000     -9.1190128    -60.7750092   24.3816109    140.8171997   -28.7643604   30.5047493    -18.5540295   -27.9928799   
220000000     -9.2097950    -62.8128204   24.2584705    139.5301056   -28.6337891   30.3228607    -18.7304192   -28.0858192   
230000000     -9.2858343    -64.5227585   24.1325798    138.3108978   -28.4910297   31.0013599    -18.8141403   -27.6464005   
240000000     -9.4033155    -66.2916565   23.9973297    137.0641937   -28.4410191   31.5042706    -18.9034691   -26.8766994   
250000000     -9.5034990    -68.0406494   23.8708897    135.8370972   -28.3469791   32.4334297    -19.0115299   -26.8082809   
260000000     -9.6051874    -69.7423782   23.7391796    134.6815033   -28.1608601   33.6492500    -19.0543003   -26.1050301   
270000000     -9.7054005    -71.4744873   23.6053600    133.5222931   -28.1055908   33.4574509    -19.1355000   -26.0240402   
280000000     -9.8052397    -73.1829605   23.4812698    132.4441986   -28.0247593   34.0721016    -19.1782799   -25.7679996   
290000000     -9.8993654    -74.8348465   23.3499107    131.2980042   -27.8717098   35.1797600    -19.3011703   -25.4181900   
300000000     -9.9612761    -76.4583511   23.2141495    130.2496948   -27.7893391   35.8471413    -19.2724400   -25.9785004   
310000000     -10.0906200   -78.0323563   23.0938091    129.1988983   -27.5836792   35.7242889    -19.2880497   -25.3523102   
320000000     -10.1604099   -79.7358627   22.9588509    128.1573029   -27.5473003   36.8516693    -19.3854103   -25.4728909   
330000000     -10.2624502   -81.2888336   22.8284397    127.1610031   -27.4295406   36.7731514    -19.3890095   -25.1753006   
340000000     -10.3464804   -82.7387466   22.7030602    126.1732025   -27.3817501   37.9630699    -19.4294491   -24.7257004   
350000000     -10.4000702   -84.2618332   22.5697002    125.2417984   -27.1706600   38.0677605    -19.4606400   -24.6710796   
360000000     -10.5204000   -85.7596436   22.4433308    124.2733002   -27.0496502   39.1834602    -19.4563408   -24.3293209   
370000000     -10.6110897   -87.3281021   22.3168201    123.3258972   -27.0250797   39.7385101    -19.5576706   -24.6195507   
380000000     -10.6883898   -88.6235733   22.1868992    122.4409027   -26.8586006   40.2657890    -19.5415096   -23.9412594   
390000000     -10.7802496   -90.3539276   22.0591106    121.5114975   -26.8301296   40.1999893    -19.6138592   -23.9434395   
400000000     -10.8416004   -91.7301788   21.9390106    120.6733017   -26.6738300   40.3448982    -19.6378307   -23.4951305   
410000000     -10.9289398   -93.4608002   21.8084793    119.8197021   -26.5543900   41.2625198    -19.7576599   -22.8239708   
420000000     -10.9563503   -94.7534027   21.6915894    118.9922028   -26.4568806   41.8531685    -19.7621403   -22.8308601   
430000000     -11.0226898   -96.2115097   21.5662708    118.1638031   -26.3296700   42.0215302    -19.8073597   -22.5755100   
440000000     -11.0857401   -97.9011230   21.4482994    117.2914963   -26.2806492   42.4723396    -19.9036102   -22.2989292   
450000000     -11.2931499   -98.6621780   21.2934399    116.5791016   -26.1051292   43.2710915    -19.5809097   -20.3767509   
460000000     -11.2552004   -99.8516464   21.1839294    115.8571014   -26.1380692   43.5111313    -19.6779099   -21.6139107   
470000000     -11.3266802   -101.2655029  21.0642509    115.1373978   -25.9072304   43.8740997    -19.7303391   -21.2642193   
480000000     -11.3351803   -102.3224030  20.9483109    114.3895035   -25.8395405   43.9534492    -19.7476597   -20.8551292   
490000000     -11.3824902   -103.6231995  20.8277702    113.6968002   -25.7338009   44.1534309    -19.8200092   -20.5484695   
500000000     -11.4483299   -104.8168030  20.7116909    112.9865036   -25.6562691   45.2760811    -19.7912502   -20.3396797   
510000000     -11.4819698   -105.9815979  20.5958996    112.2481995   -25.5041008   44.9283905    -19.8498993   -20.3887596   
520000000     -11.5015402   -106.9845963  20.4843597    111.6084976   -25.4519691   45.0563698    -19.8446598   -19.9252605   
530000000     -11.5578098   -107.9972000  20.3712196    110.9288025   -25.2995796   45.5673218    -19.7579994   -19.5425892   
540000000     -11.6106501   -109.0669022  20.2586098    110.2699966   -25.1911201   45.8585281    -19.8019695   -19.7111797   
550000000     -11.6330996   -110.2163010  20.1444893    109.6619034   -25.1383801   45.9791794    -19.8429909   -19.1842003   
560000000     -11.7087002   -111.1891022  20.0372200    109.0065002   -25.0129108   46.2876205    -19.8443794   -19.4615993   
570000000     -11.7430801   -112.2137985  19.9251709    108.3843994   -24.8895302   46.6721382    -19.8447208   -19.5290699   
580000000     -11.7846098   -113.2007980  19.8186893    107.7806015   -24.8301296   46.7233009    -19.8291206   -19.1438293   
590000000     -11.8179398   -114.1006012  19.7111702    107.1761017   -24.7369003   47.1034813    -19.8517399   -19.5016098   
600000000     -11.8754396   -114.9291992  19.6046200    106.5749969   -24.6623402   47.2825089    -19.8433208   -19.6210003   
610000000     -11.9061899   -116.0430984  19.4962101    105.9890976   -24.5230408   47.6247215    -19.8955803   -19.8938694   
620000000     -11.9533997   -116.9434967  19.3965702    105.4360962   -24.4454708   47.6826515    -19.8587704   -19.5226402   
630000000     -12.0071497   -117.9140015  19.2904606    104.8625031   -24.3552208   47.9792709    -19.8668003   -20.0944500   
640000000     -12.0581503   -118.7409973  19.1913395    104.3376999   -24.2472305   47.8843994    -19.8955097   -20.2655792   
650000000     -12.0833998   -119.7892990  19.0921307    103.7684021   -24.1654797   48.3918991    -19.9067898   -20.6117496   
660000000     -12.1388502   -120.7124023  18.9884109    103.1910019   -24.0494595   48.4125290    -19.8568192   -20.9636593   
670000000     -12.1893902   -121.7095032  18.8906307    102.6464996   -23.9706306   48.9132881    -19.9078102   -21.1648006   
680000000     -12.2279997   -122.7099991  18.7907791    102.1213989   -23.9033508   49.0708084    -19.9795208   -21.4997101   
690000000     -12.2617702   -123.5734024  18.6943302    101.6020966   -23.8186493   49.1637001    -19.9228802   -21.2332191   
700000000     -12.3152199   -124.6210022  18.5955906    101.0693970   -23.7529697   49.0300789    -20.0122795   -21.9040909   
710000000     -12.3345203   -125.6113968  18.4974594    100.5316010   -23.6432991   49.5672112    -20.0050793   -21.8620205   
720000000     -12.3997402   -126.3570023  18.3959408    100.0367966   -23.5489292   49.7234802    -19.9847507   -22.0720901   
730000000     -12.4131203   -127.4860992  18.3058605    99.5389404    -23.4144993   49.6996002    -20.0530491   -22.2360897   
740000000     -12.4682798   -128.5762939  18.2081108    99.0045319    -23.3650494   49.8843803    -20.0504799   -22.3225307   
750000000     -12.5005102   -129.2321930  18.1118507    98.6062317    -23.2846203   50.2751694    -19.9551296   -22.6237793   
760000000     -12.5214901   -130.1526947  18.0242500    98.0871964    -23.2325306   49.9442291    -19.9805393   -22.5790806   
770000000     -12.5354300   -130.8101959  17.9271297    97.6409073    -23.0890808   50.2308884    -19.9119797   -23.0737705   
780000000     -12.5150099   -131.5158997  17.8394794    97.1847229    -23.0260105   50.4430504    -19.9267597   -23.2965393   
790000000     -12.5337095   -132.4850006  17.7460499    96.7026901    -22.9496803   50.4347305    -19.9300194   -23.2323208   
800000000     -12.5931997   -132.9897003  17.6512299    96.2664032    -22.8317699   50.4659615    -19.8763599   -23.6417904   
810000000     -12.5704298   -133.6327972  17.5639801    95.8391495    -22.7761097   50.7753601    -19.8744202   -23.7647400   
820000000     -12.5875502   -134.2841034  17.4771996    95.4362793    -22.6945400   50.8579903    -19.8839893   -23.9786892   
830000000     -12.5821400   -135.0220947  17.3940792    94.9453735    -22.6297703   50.8384094    -19.8679199   -23.9810791   
840000000     -12.5997801   -135.5357056  17.3122997    94.5242233    -22.5125999   50.8563194    -19.8772697   -24.1444492   
850000000     -12.5544004   -136.4618073  17.2223206    93.9999771    -22.4868603   50.8066483    -19.8182602   -23.7764206   
860000000     -12.6968403   -136.9953003  17.1127892    93.6840591    -22.4290295   51.2879601    -19.6643505   -23.3156509   
870000000     -12.6944704   -136.9223022  17.0460892    93.3528290    -22.2705402   51.4159317    -19.5375710   -24.0354996   
880000000     -12.6969900   -137.3287964  16.9699097    92.9219437    -22.1882591   51.3163681    -19.5454197   -24.2027702   
890000000     -12.7060499   -137.8798065  16.8804893    92.5044937    -22.1412697   51.4827805    -19.5069504   -24.2906799   
900000000     -12.7357197   -138.4871063  16.8005695    92.0855484    -22.0476398   51.5416298    -19.5144405   -24.4344597   
910000000     -12.7343102   -138.7893066  16.7263794    91.7090378    -22.0368099   51.6295891    -19.4572601   -24.6176300   
920000000     -12.7535801   -139.2221069  16.6410809    91.3027802    -21.9029007   51.6517715    -19.4165592   -24.7274799   
930000000     -12.8117704   -139.8489075  16.5694904    90.9000473    -21.8539200   51.6441612    -19.3862000   -25.1201401   
940000000     -12.8213301   -140.3701019  16.4897709    90.5083923    -21.7613392   51.8066216    -19.3687000   -24.8753891   
950000000     -12.8439503   -140.8441010  16.4113808    90.1229172    -21.6816006   51.8809090    -19.3225193   -25.1967793   
960000000     -12.8647099   -141.4302979  16.3372593    89.7331238    -21.6017399   51.7690010    -19.3221493   -25.3268700   
970000000     -12.9088697   -141.9506073  16.2591400    89.3316116    -21.5365906   51.8957100    -19.3076801   -25.5307102   
980000000     -12.9095297   -142.7144012  16.1862793    88.9579468    -21.4744492   51.8266602    -19.3199291   -25.6007004   
990000000     -12.9382696   -143.1714935  16.1089306    88.5620728    -21.3877792   51.8576889    -19.3117008   -25.8065605   
1000000000    -12.9547796   -143.9674072  16.0346603    88.2176666    -21.3072205   51.8636208    -19.3298397   -25.6507607   
1025000000    -12.9870396   -145.4703979  15.8549500    87.2634735    -21.1575508   51.8348389    -19.3328609   -26.3508396   
1050000000    -13.0103197   -147.0227051  15.6768103    86.3616867    -20.9979591   51.9640808    -19.4512291   -26.3640499   
1075000000    -13.0235796   -148.8150940  15.4934301    85.4204330    -20.8285809   52.0189781    -19.4800091   -26.4677601   
1100000000    -13.0282698   -149.9488068  15.3230000    84.5751190    -20.6146297   52.2208290    -19.5251598   -27.3247890   
1125000000    -12.9931498   -151.2669067  15.1475697    83.7313309    -20.4955807   52.2675095    -19.5613098   -27.6814594   
1150000000    -12.9961100   -152.3318939  14.9850798    82.9036102    -20.2745705   52.1509705    -19.5960999   -28.4556999   
1175000000    -12.9793701   -153.4409943  14.8230495    82.0731964    -20.1638699   51.8560905    -19.5718002   -29.2636204   
1200000000    -13.0129805   -154.3253937  14.6626196    81.2713165    -20.0106106   51.8784294    -19.5406399   -30.3253899   
1225000000    -13.0472803   -155.2967072  14.5106096    80.4522934    -19.8597202   51.7547112    -19.4455509   -31.0496597   
1250000000    -13.1059303   -156.3576050  14.3534803    79.6597214    -19.6898804   51.8776894    -19.3921795   -31.9868393   
1275000000    -13.1663303   -157.3059998  14.2007504    78.8432770    -19.5449104   51.6464119    -19.3882103   -33.2724609   
1300000000    -13.1959000   -158.4284058  14.0548496    78.0689316    -19.4294205   51.7353516    -19.2865601   -33.7886810   
1325000000    -13.2150097   -159.6573029  13.9102497    77.2636032    -19.2605495   51.4727402    -19.2632599   -34.3569603   
1350000000    -13.2444201   -160.7958069  13.7653198    76.5250931    -19.1142597   51.4967499    -19.2068005   -35.1374207   
1375000000    -13.2476101   -161.5838928  13.6262398    75.7936172    -19.0006905   51.2223282    -19.2289696   -35.2851105   
1400000000    -13.2060099   -162.6757050  13.4870005    75.0443573    -18.8684196   51.0793686    -19.1505203   -35.6247215   
1425000000    -13.1627502   -163.3809052  13.3502102    74.2991333    -18.7296200   50.9890099    -19.1915092   -35.6615295   
1450000000    -13.1268702   -164.0776062  13.2117796    73.5727310    -18.5950394   51.0011101    -19.1890697   -35.7501602   
1475000000    -13.1307697   -164.4349976  13.0811195    72.8782501    -18.4588394   50.6334915    -19.2271709   -36.2471085   
1500000000    -13.1106100   -165.0610962  12.9547997    72.1526413    -18.3537502   50.6585007    -19.1870708   -36.3670616   
1525000000    -13.1059198   -165.4900970  12.8322496    71.5075531    -18.2218399   50.4078903    -19.1559391   -36.6202583   
1550000000    -13.1516504   -166.3446960  12.7113199    70.7659607    -18.0842400   50.1405487    -19.0938091   -37.7518997   
1575000000    -13.1758900   -167.0525970  12.5907497    70.0707016    -17.9662895   50.1064606    -19.0932503   -38.5595016   
1600000000    -13.2264700   -167.8755035  12.4656696    69.3629608    -17.8440208   49.8649712    -19.1320305   -39.3260994   
1625000000    -13.2544098   -169.1011047  12.3525696    68.6647415    -17.7171192   49.6176605    -19.0452194   -40.5405884   
1650000000    -13.2796402   -170.0213928  12.2314196    67.9685364    -17.6133099   49.3027992    -19.1134605   -41.6194916   
1675000000    -13.3041697   -171.2120056  12.1143799    67.3042984    -17.4924297   49.2571907    -19.0613995   -42.5967789   
1700000000    -13.3007202   -171.7561951  11.9972401    66.6472473    -17.3917503   49.1020889    -19.0112495   -42.8991699   
1725000000    -13.2969103   -172.7705994  11.8946695    65.9901810    -17.2678699   48.7927208    -18.9088192   -44.4228210   
1750000000    -13.2750502   -173.2442017  11.7769203    65.2805405    -17.1569004   48.4617386    -18.9064693   -44.7640800   
1775000000    -13.2902498   -173.7180939  11.6678495    64.6636581    -17.0564098   48.4446602    -18.8004799   -45.2760391   
1800000000    -13.2395601   -174.0545959  11.5619001    64.0358963    -16.9445591   48.2093391    -18.7220707   -45.2794304   
1825000000    -13.2788696   -174.4234009  11.4559898    63.3678703    -16.8502693   47.9849701    -18.6052494   -45.7887192   
1850000000    -13.3240604   -174.5619965  11.3553495    62.7706604    -16.7475109   47.6139488    -18.5013294   -46.4734001   
1875000000    -13.3340797   -175.0088959  11.2596598    62.1181793    -16.6457005   47.5262108    -18.3857994   -46.5525398   
1900000000    -13.3949604   -175.3455048  11.1582699    61.5063515    -16.5158501   47.3337784    -18.3760891   -47.2090302   
1925000000    -13.4782000   -176.1569061  11.0619402    60.8288498    -16.4709892   47.0338211    -18.2945194   -47.7906685   
1950000000    -13.4691601   -177.0791016  10.9694300    60.1636696    -16.3470306   46.6369209    -18.2883396   -48.8176193   
1975000000    -13.4920197   -178.0740967  10.8698196    59.5643883    -16.2448006   46.4149208    -18.3019905   -49.4048805   
2000000000    -13.5044603   -179.0240936  10.7777996    58.8979797    -16.1622391   46.1080093    -18.3222008   -50.0163193   
2025000000    -13.4940300   -179.7704010  10.6779404    58.2713013    -16.0570698   45.9456406    -18.3404694   -50.9005203   
2050000000    -13.4575100   179.4757996   10.5816402    57.6322289    -15.9574699   45.5619087    -18.3272991   -51.3824997   
2075000000    -13.4576502   178.5390015   10.4863901    57.0715904    -15.8753300   45.3709488    -18.3172493   -51.7173882   
2100000000    -13.4251699   178.2026062   10.3982096    56.4480782    -15.7896700   45.0187416    -18.2118893   -52.5744591   
2125000000    -13.3952599   178.2498016   10.3144703    55.8222809    -15.6695204   44.7687607    -18.1743298   -53.3070717   
2150000000    -13.4352398   177.6372986   10.2239399    55.1946411    -15.5970297   44.5974998    -18.1111202   -53.7654610   
2175000000    -13.4545898   177.4696960   10.1319504    54.5792389    -15.5302896   44.2118797    -18.1149693   -54.1617203   
2200000000    -13.4897699   177.1970062   10.0559101    54.0093918    -15.4191103   44.0071411    -17.9300900   -55.1676788   
2225000000    -13.5691099   176.6499939   9.9755268     53.4153595    -15.3298798   43.6399803    -17.8396492   -55.6131897   
2250000000    -13.5722399   176.1638947   9.8923111     52.7490196    -15.2272301   43.4473000    -17.7370491   -56.3258018   
2275000000    -13.6469498   175.5375977   9.8056679     52.1876793    -15.1807098   43.1413002    -17.6899700   -56.8272400   
2300000000    -13.7761497   175.1479950   9.7164536     51.7024918    -15.1208496   42.9851112    -17.6004505   -56.6646805   
