!Mini-Circuits Laboratory
!S-Parameters, Port extension performed
!Model: PGA-103+
!Run / Lot / Date Code: N/A / BP170-001-01-101EV / 1210
!Fixture: TB-313
!Network Analyzer: PNA-X N5242A - 423 4 ports;  Serial number: 71013
!Date: 5/23/2012 at 10:41:20 AM
!S/N: Unit# 1
!Tested with: VDD=5V AT +85C
!
# Hz  S  dB  R  50
!Frequency    S11 dB        S11 Deg       S21 dB        S21 Deg       S12 dB        S12 Deg       S22 dB        S22 Deg       
10000000      -1.7864500    -20.0009899   28.6472893    169.4123993   -36.5723190   73.8071671    -5.8176990    -25.1492805   
20000000      -3.3088529    -28.1235695   27.6652699    164.8726044   -32.4457817   42.5968895    -7.6905169    -37.1528397   
30000000      -4.7123542    -31.5968208   26.9955101    163.5381927   -31.3597393   32.4115410    -9.7587395    -42.3717003   
40000000      -5.6812649    -32.9495392   26.5914803    162.7852020   -30.5685196   26.8869095    -11.4236002   -43.9204597   
50000000      -6.2398639    -33.9526100   26.3489094    162.0912933   -29.7906094   29.1085892    -12.6031103   -43.5539894   
60000000      -6.7866812    -34.2958603   26.1219196    161.4508057   -29.9588795   22.0223103    -13.6952496   -42.0959282   
70000000      -7.1206541    -35.5057411   25.9871807    160.2816010   -30.0319691   23.5658607    -14.4647398   -41.3972702   
80000000      -7.3840299    -36.6357498   25.8585091    159.0220947   -29.9375305   23.0745697    -15.1261902   -39.8483200   
90000000      -7.6093392    -38.1715012   25.7452297    157.7171021   -29.8017197   23.0527706    -15.6426601   -38.5122910   
100000000     -7.7686362    -39.7119789   25.6389999    156.3175964   -29.6741295   23.2426300    -16.1082897   -37.4310989   
110000000     -7.9113841    -41.4893799   25.5356503    154.8161926   -29.5666809   23.9441395    -16.4921494   -36.3308296   
120000000     -8.0526934    -43.4137802   25.4367599    153.4158020   -29.5067692   24.8017006    -16.8504200   -35.4368286   
130000000     -8.1988163    -45.3352394   25.3169098    151.9346924   -29.3624802   23.0395908    -17.1728592   -34.2419281   
140000000     -8.3012619    -47.2309494   25.2076797    150.4647980   -29.3639507   25.9836998    -17.4267406   -33.8030891   
150000000     -8.4794474    -49.3676796   25.0934601    149.0498962   -29.2086792   26.4148598    -17.6774597   -32.7397690   
160000000     -8.5775490    -51.2472687   24.9756794    147.6056061   -29.1651497   27.1421204    -17.9107704   -32.2214508   
170000000     -8.6509790    -53.1650391   24.8581009    146.2106018   -29.1155300   27.1367893    -18.0656605   -31.3343906   
180000000     -8.7574568    -55.0647697   24.7394409    144.8078003   -28.9732094   27.9918709    -18.2021809   -30.8946304   
190000000     -8.8734779    -56.9854813   24.6160393    143.4774017   -28.9164391   28.5921307    -18.3345509   -30.3384609   
200000000     -8.9678535    -58.9199905   24.4883099    142.1190948   -28.7767200   28.3113308    -18.5614700   -30.0439396   
210000000     -9.0681620    -60.7107811   24.3579006    140.8406982   -28.6169109   30.0113392    -18.6267796   -29.1517200   
220000000     -9.1570301    -62.7886009   24.2338009    139.5635071   -28.5688400   30.7409000    -18.7840900   -29.2410698   
230000000     -9.2456789    -64.5394592   24.1084194    138.3385925   -28.4554596   31.4189491    -18.8543797   -28.4865799   
240000000     -9.3521204    -66.1873932   23.9729309    137.1044006   -28.3248291   32.0385208    -18.9729004   -27.9103394   
250000000     -9.4550095    -67.9226990   23.8476009    135.8542023   -28.2358494   33.6282501    -19.0650291   -27.5853100   
260000000     -9.5654907    -69.7138367   23.7150192    134.7057037   -28.0956306   33.6445694    -19.1051407   -27.3491402   
270000000     -9.6543427    -71.3013382   23.5824909    133.5594940   -28.0183601   34.2602501    -19.2123394   -27.0373592   
280000000     -9.7359619    -73.0392609   23.4567509    132.4701996   -27.8984699   34.4544792    -19.2960300   -26.8631706   
290000000     -9.8540936    -74.6385117   23.3274708    131.3249054   -27.8854294   35.2624016    -19.3505707   -26.3921795   
300000000     -9.9131575    -76.3400497   23.1929493    130.2666016   -27.7015400   35.1575317    -19.3595409   -26.9510403   
310000000     -10.0266600   -77.9168091   23.0710907    129.2191010   -27.6297092   35.9293213    -19.3885307   -26.4725800   
320000000     -10.1179104   -79.6475372   22.9366302    128.1898956   -27.4708405   36.7062988    -19.4638309   -26.7505493   
330000000     -10.1990805   -81.0931396   22.8075600    127.1759033   -27.4222794   37.7574005    -19.5381203   -26.1716003   
340000000     -10.2953796   -82.6104889   22.6809292    126.2050018   -27.2410393   37.8292084    -19.5469608   -26.1741199   
350000000     -10.3616600   -84.1857529   22.5494709    125.2658997   -27.0925503   38.4145012    -19.5500202   -25.8122597   
360000000     -10.4669199   -85.6955490   22.4234200    124.2960968   -27.0769291   38.6680603    -19.6246395   -25.5851994   
370000000     -10.5789900   -87.2033234   22.2956295    123.3595963   -26.9725304   39.0661583    -19.6874199   -25.6012402   
380000000     -10.6396704   -88.5992737   22.1673298    122.4720993   -26.8423309   39.4741707    -19.6988907   -25.1544895   
390000000     -10.7285204   -90.2696228   22.0382595    121.5412979   -26.7156296   40.2589493    -19.7684708   -25.3679295   
400000000     -10.8030701   -91.7449417   21.9203701    120.6901016   -26.5944691   40.7611809    -19.7945595   -24.5267906   
410000000     -10.8732996   -93.3183365   21.7887592    119.8433990   -26.5829296   41.1262207    -19.9262505   -24.2095699   
420000000     -10.9084301   -94.6625519   21.6709709    119.0127029   -26.4473209   41.8969994    -19.9048996   -24.1966400   
430000000     -10.9863195   -96.0849533   21.5470295    118.1820984   -26.3369007   42.3142395    -19.9440899   -23.5230408   
440000000     -11.0396996   -97.7780380   21.4291992    117.3209000   -26.2450695   42.0792999    -20.0531597   -23.4772205   
450000000     -11.2500000   -98.5247726   21.2732506    116.5970993   -26.1269207   43.2731400    -19.7758102   -21.4263401   
460000000     -11.2305899   -99.7739868   21.1654491    115.8821030   -25.9619694   43.5265007    -19.8439598   -22.8069897   
470000000     -11.2700596   -101.0707016  21.0457802    115.1436996   -25.8938103   43.5747299    -19.9393501   -22.3082008   
480000000     -11.2989302   -102.2608032  20.9271793    114.4079971   -25.8081207   44.0151405    -19.9273491   -22.0664406   
490000000     -11.3396101   -103.5519028  20.8087597    113.7138977   -25.7106705   43.8948288    -20.0258904   -21.7418900   
500000000     -11.3932400   -104.6911011  20.6933002    113.0024033   -25.5446301   44.5509911    -19.9899502   -21.4638901   
510000000     -11.4246101   -105.8797989  20.5777893    112.2566986   -25.4549294   44.9154892    -20.0565796   -21.1845398   
520000000     -11.4612999   -106.8629990  20.4638405    111.6182022   -25.3836308   45.2245216    -20.0253696   -20.9183903   
530000000     -11.5028200   -107.9364014  20.3534794    110.9383011   -25.2290401   45.7473984    -19.9779606   -20.4650707   
540000000     -11.5617599   -108.9303970  20.2391491    110.2800980   -25.1450291   45.7409592    -20.0349102   -20.7661591   
550000000     -11.6073303   -110.0776978  20.1255302    109.6707993   -25.0694904   46.0805397    -20.0557899   -20.2112408   
560000000     -11.6656504   -111.1529999  20.0184803    109.0102997   -25.0102806   46.3032494    -20.0819302   -20.6185093   
570000000     -11.6919899   -112.0889969  19.9051304    108.3954010   -24.8416901   46.7476997    -20.0637302   -20.5771008   
580000000     -11.7365904   -113.1678009  19.8033695    107.7723999   -24.7478905   47.1044197    -20.0936298   -20.3421402   
590000000     -11.7747402   -114.0558014  19.6943798    107.1849976   -24.6894093   47.0677910    -20.1024494   -20.8218899   
600000000     -11.8320904   -114.9079971  19.5863094    106.5795975   -24.5651894   47.1312408    -20.0669193   -20.8720093   
610000000     -11.8556805   -115.8977966  19.4793205    105.9805984   -24.4846706   47.3452606    -20.1349106   -21.0946598   
620000000     -11.9140701   -116.8834991  19.3761902    105.4405975   -24.4389305   47.8312111    -20.0925694   -20.6786308   
630000000     -11.9691601   -117.7557983  19.2710304    104.8612976   -24.2956009   48.0026703    -20.1247501   -21.3090801   
640000000     -12.0175896   -118.6427002  19.1725197    104.3414993   -24.2399998   48.3424187    -20.1915493   -21.4155006   
650000000     -12.0525904   -119.6483002  19.0731506    103.7686005   -24.1109791   48.3266411    -20.1368008   -21.6420403   
660000000     -12.0920200   -120.6710968  18.9704704    103.1913986   -24.0602207   48.8041496    -20.1355000   -22.3036900   
670000000     -12.1461897   -121.6271973  18.8735504    102.6436996   -23.9245605   48.8343811    -20.1293392   -22.6162109   
680000000     -12.1831799   -122.7013016  18.7730408    102.1219025   -23.8435001   48.6924591    -20.2345409   -22.6281700   
690000000     -12.2325497   -123.6299973  18.6767998    101.5959015   -23.7356796   48.8174782    -20.1900291   -22.3938408   
700000000     -12.2694397   -124.5317993  18.5789204    101.0609970   -23.6804504   49.1692390    -20.2486191   -23.0537395   
710000000     -12.3024397   -125.6259995  18.4784203    100.5189972   -23.5770893   49.6620407    -20.2309799   -23.1684895   
720000000     -12.3481302   -126.3060989  18.3789806    100.0391998   -23.5078602   49.4477005    -20.2555809   -22.9588394   
730000000     -12.3744297   -127.3317032  18.2877407    99.5205383    -23.4184399   49.7830696    -20.3259106   -23.3986893   
740000000     -12.4279604   -128.4721069  18.1913509    98.9931183    -23.3370304   49.9333000    -20.3151302   -23.7573795   
750000000     -12.4675398   -129.2106018  18.0947895    98.6068573    -23.2484093   50.0259590    -20.2304802   -23.8114109   
760000000     -12.4676704   -130.1692963  18.0063992    98.0688705    -23.1878109   50.2969589    -20.2150002   -23.8210793   
770000000     -12.4919100   -130.7716980  17.9089298    97.6285629    -23.0469704   50.2527390    -20.1213207   -24.1607494   
780000000     -12.4752102   -131.4324951  17.8225708    97.1700363    -23.0004692   50.2419395    -20.1968098   -24.3077908   
790000000     -12.5002298   -132.5375977  17.7282791    96.6737366    -22.8978806   50.4061508    -20.1724300   -24.3225899   
800000000     -12.5487499   -132.9949951  17.6358795    96.2546310    -22.8064594   50.8008194    -20.1461391   -24.5531406   
810000000     -12.5245705   -133.5534058  17.5478096    95.8187637    -22.7193909   50.5741005    -20.1097202   -24.7783203   
820000000     -12.5435104   -134.1891937  17.4609604    95.4228363    -22.6667900   50.7958488    -20.1621609   -24.8982697   
830000000     -12.5615196   -135.0447998  17.3764496    94.9377823    -22.5603199   50.8654594    -20.1128292   -25.0861206   
840000000     -12.5545397   -135.5186005  17.2955799    94.5019302    -22.4920807   50.8433495    -20.1188602   -25.0830193   
850000000     -12.5206003   -136.4989014  17.2029209    93.9746170    -22.4387608   51.0059013    -20.0730801   -24.6442108   
860000000     -12.6325302   -136.9452057  17.0992908    93.6505432    -22.3728409   51.0918388    -19.9723091   -24.1433792   
870000000     -12.6653996   -136.9022980  17.0279808    93.3365097    -22.2464504   51.2747498    -19.7802792   -24.8280602   
880000000     -12.6560497   -137.3650970  16.9519997    92.8984070    -22.1490898   51.5116501    -19.7858295   -25.2725906   
890000000     -12.6700497   -137.8273926  16.8661995    92.4738693    -22.0877399   51.3061981    -19.7755394   -25.3520393   
900000000     -12.6956596   -138.4962006  16.7845097    92.0712738    -22.0072098   51.5430412    -19.7661304   -25.5578995   
910000000     -12.7101698   -138.8506927  16.7114201    91.6792068    -21.9529705   51.3901100    -19.7372704   -25.4813194   
920000000     -12.7133999   -139.1347046  16.6256504    91.2811890    -21.8763905   51.4369888    -19.6883202   -25.6090202   
930000000     -12.7781296   -139.9080963  16.5534191    90.8694916    -21.7934208   51.4920006    -19.6431808   -25.9247704   
940000000     -12.7775602   -140.4315948  16.4731998    90.4851608    -21.7003193   51.6694489    -19.6134109   -25.7820892   
950000000     -12.8172998   -140.9284973  16.3947506    90.0987091    -21.6220207   51.5840111    -19.5884399   -26.1632900   
960000000     -12.8192501   -141.4154968  16.3211708    89.6933823    -21.5903606   51.7079697    -19.5944901   -26.1414299   
970000000     -12.8622103   -141.9548950  16.2438107    89.3025208    -21.4910698   51.6547318    -19.5872593   -26.3673706   
980000000     -12.8794403   -142.7230988  16.1698208    88.9275284    -21.3958607   51.8104401    -19.5869102   -26.4798298   
990000000     -12.9083796   -143.2395020  16.0933304    88.5246277    -21.3213100   51.8173409    -19.5653896   -26.5469799   
1000000000    -12.9075003   -143.9700012  16.0195198    88.1916428    -21.2687893   51.8562202    -19.6032295   -26.5266800   
1025000000    -12.9645395   -145.4476929  15.8397303    87.2319489    -21.0827503   51.9895210    -19.6271000   -27.2410507   
1050000000    -12.9743900   -147.0872955  15.6608496    86.3289490    -20.9520092   51.9781418    -19.7146492   -27.3841305   
1075000000    -12.9845600   -148.7575989  15.4779902    85.3834763    -20.7907391   51.9388809    -19.7513504   -27.4486694   
1100000000    -12.9930201   -150.0428009  15.3057404    84.5324783    -20.5990791   51.9363213    -19.8067608   -28.4425697   
1125000000    -12.9672203   -151.3292999  15.1337996    83.6838531    -20.4423599   52.0478706    -19.8490906   -28.7602291   
1150000000    -12.9548197   -152.3204956  14.9712000    82.8561401    -20.2678795   51.7902908    -19.8692207   -29.3197308   
1175000000    -12.9525995   -153.4774017  14.8089104    82.0305023    -20.1092892   51.9634590    -19.8485909   -30.3039608   
1200000000    -12.9884300   -154.3345947  14.6461401    81.2184677    -19.9722691   51.9201889    -19.8397598   -31.3118896   
1225000000    -13.0276699   -155.2962036  14.4947796    80.4146271    -19.7859592   51.7325592    -19.7251701   -32.0662308   
1250000000    -13.0641298   -156.3556061  14.3365803    79.6112366    -19.6710396   51.7452202    -19.6795998   -33.1040611   
1275000000    -13.1255102   -157.3287048  14.1854200    78.7959366    -19.5208092   51.6879616    -19.6667194   -34.0791702   
1300000000    -13.1648302   -158.4250946  14.0389299    78.0092316    -19.3414307   51.3327293    -19.5772591   -34.8225098   
1325000000    -13.1876898   -159.8009949  13.8947401    77.2058182    -19.2323704   51.1782494    -19.5494308   -35.3451996   
1350000000    -13.2044697   -160.7790985  13.7508898    76.4693832    -19.1045094   51.2810211    -19.4791508   -35.8705711   
1375000000    -13.2056198   -161.6340027  13.6110296    75.7325668    -18.9330997   51.1521492    -19.5127697   -36.2953110   
1400000000    -13.1741304   -162.7145996  13.4729795    74.9732513    -18.8388309   51.0412598    -19.4222202   -36.2537613   
1425000000    -13.1373301   -163.4990997  13.3358002    74.2394485    -18.6939697   50.9707108    -19.4550800   -36.5557289   
1450000000    -13.0951004   -164.1894989  13.1973896    73.5127335    -18.5618706   50.7871590    -19.4658298   -36.6015396   
1475000000    -13.0893497   -164.5702972  13.0658703    72.8139725    -18.4135704   50.4989891    -19.5048599   -37.0984612   
1500000000    -13.0827303   -165.1558075  12.9402905    72.0855713    -18.3072395   50.5787582    -19.4640999   -37.2798386   
1525000000    -13.0683002   -165.6371002  12.8177996    71.4265366    -18.1724491   50.3284988    -19.4499092   -37.6058693   
1550000000    -13.1188202   -166.5077972  12.6975899    70.7049332    -18.0306892   50.1713791    -19.3684998   -38.7380981   
1575000000    -13.1468601   -167.2360992  12.5747299    70.0035934    -17.9287796   49.9071007    -19.3480091   -39.5332909   
1600000000    -13.1991396   -168.0498962  12.4508495    69.2828827    -17.8075809   49.6599884    -19.4078598   -40.1286888   
1625000000    -13.2313995   -169.2373962  12.3373699    68.5908737    -17.7054901   49.4962387    -19.3355694   -41.3841209   
1650000000    -13.2601805   -170.0590973  12.2158699    67.8962708    -17.5705204   49.3934402    -19.3498497   -42.4147606   
1675000000    -13.2644997   -171.3031006  12.0999699    67.2163467    -17.4488392   49.0118790    -19.3142796   -43.5993500   
1700000000    -13.2606602   -171.8730011  11.9828100    66.5678101    -17.3406696   48.9334793    -19.2691307   -43.8298912   
1725000000    -13.2571402   -172.8112946  11.8793001    65.8907166    -17.2315693   48.7751808    -19.2002792   -45.2500992   
1750000000    -13.2470598   -173.2534943  11.7633495    65.1957474    -17.1267700   48.3692284    -19.1947899   -45.8484993   
1775000000    -13.2565603   -173.9067993  11.6531696    64.5709991    -17.0199203   48.3038216    -19.0383396   -46.1790009   
1800000000    -13.2193899   -174.0986023  11.5465698    63.9544182    -16.9080391   48.0830383    -18.9968395   -46.2811890   
1825000000    -13.2514601   -174.5859070  11.4419403    63.2836800    -16.8122997   47.7710419    -18.8709106   -46.6706810   
1850000000    -13.2927799   -174.7973938  11.3402300    62.6781082    -16.7259903   47.3812103    -18.7504807   -47.2171898   
1875000000    -13.3088198   -175.1596985  11.2446404    62.0248985    -16.6013699   47.2357903    -18.6538296   -47.5093689   
1900000000    -13.3699799   -175.4794006  11.1432400    61.4017296    -16.4900799   47.0986404    -18.6322594   -48.0803909   
1925000000    -13.4351501   -176.3332062  11.0485697    60.7304916    -16.4045200   46.9248695    -18.5535202   -48.6195908   
1950000000    -13.4455299   -177.2256012  10.9550304    60.0667381    -16.3059196   46.6735382    -18.5110207   -49.5797195   
1975000000    -13.4750004   -178.1540985  10.8565502    59.4497910    -16.2010498   46.1403809    -18.5724297   -50.3164482   
2000000000    -13.4798603   -178.9676056  10.7630396    58.7914200    -16.0775204   45.9588509    -18.5525398   -51.0953293   
2025000000    -13.4833202   -179.8126984  10.6638298    58.1606789    -16.0228195   45.7534409    -18.5815105   -51.6043015   
2050000000    -13.4222403   179.2964935   10.5668802    57.5204811    -15.9184999   45.3314705    -18.5733204   -52.3764114   
2075000000    -13.4042902   178.3890076   10.4710703    56.9402390    -15.8580799   45.1389694    -18.5601902   -52.5955009   
2100000000    -13.3921700   178.0019989   10.3850098    56.3224716    -15.7552500   44.8625298    -18.4462700   -53.3453789   
2125000000    -13.3740501   178.0115967   10.2988005    55.7141418    -15.6238098   44.5583801    -18.3801003   -54.1044502   
2150000000    -13.4013100   177.5458069   10.2112103    55.0827293    -15.5454397   44.2811508    -18.3236694   -54.8495293   
2175000000    -13.4219599   177.3574982   10.1197701    54.4622002    -15.4781704   44.0607185    -18.3363209   -55.1057205   
2200000000    -13.4771004   176.9515991   10.0425501    53.8940010    -15.3830004   43.7411995    -18.1643200   -56.1061401   
2225000000    -13.5391903   176.4463959   9.9606400     53.3019981    -15.2961302   43.5454597    -18.0878391   -56.5911293   
2250000000    -13.5693102   175.9609985   9.8785124     52.6289101    -15.2041397   43.2416496    -17.9608402   -57.2424889   
2275000000    -13.6067600   175.3338013   9.7916222     52.0543098    -15.1232300   42.8619308    -17.9281502   -57.7447891   
2300000000    -13.7500696   174.9273071   9.7030506     51.5590286    -15.0679398   42.6446495    -17.8405609   -57.5015717   
