!Mini-Circuits Laboratory
!S-Parameters, Port extension performed
!Model: PGA-103+
!Run / Lot / Date Code: N/A / BP170-001-01-101EV / 1210
!Fixture: TB-313
!Network Analyzer: PNA-X N5242A - 423 4 ports;  Serial number: 71013
!Date: 5/24/2012 at 5:16:12 PM
!S/N: Unit# 1
!Tested with: Vdd=5.25V at 25C
!
# Hz  S  dB  R  50
!Frequency    S11 dB        S11 Deg       S21 dB        S21 Deg       S12 dB        S12 Deg       S22 dB        S22 Deg       
10000000      -1.4067450    -21.8224602   29.4395103    168.1092987   -37.9463615   52.2249413    -5.5575628    -28.0179806   
20000000      -3.4741170    -32.4449387   28.4177799    163.0592957   -32.8729401   41.5865097    -8.2113352    -44.7688789   
30000000      -5.0856161    -37.1416283   27.6310501    161.5010071   -31.4484997   32.7644081    -10.5371599   -53.2563095   
40000000      -6.2622209    -39.0950699   27.1423092    160.7966003   -30.8139095   27.5350704    -12.5147495   -57.5148201   
50000000      -6.9273629    -40.1779099   26.8439293    160.1824951   -30.8782692   28.9208508    -14.0169697   -60.2027092   
60000000      -7.7083421    -41.1757507   26.5709209    159.6356049   -29.9980698   25.2518005    -15.7238302   -60.8311882   
70000000      -8.1364508    -41.9676819   26.4086609    158.5713959   -30.1137409   22.8702393    -16.8541698   -60.5330086   
80000000      -8.4881926    -43.0167084   26.2587795    157.4183044   -30.0154896   23.0022907    -18.0163403   -59.6243095   
90000000      -8.7693529    -44.2351799   26.1281891    156.1914978   -29.8753510   23.0042400    -19.0471191   -58.4807396   
100000000     -8.9812431    -45.7400398   26.0089607    154.8674011   -29.8044491   22.9910297    -19.9192505   -57.0747414   
110000000     -9.1715431    -47.2346001   25.8937492    153.4226990   -29.8634300   22.9546700    -20.6423397   -55.3251991   
120000000     -9.3343821    -49.0598297   25.7862492    152.0749054   -29.6577892   23.3691502    -21.4121609   -53.2541389   
130000000     -9.5525475    -50.8806992   25.6572495    150.6403961   -29.3519993   21.4138203    -22.2448902   -51.3256607   
140000000     -9.6347179    -52.6323395   25.5433502    149.2133026   -29.4366894   25.6230507    -22.6076107   -48.6287689   
150000000     -9.8125124    -54.5812492   25.4198608    147.8401031   -29.3652401   25.0198498    -23.1833496   -46.9430008   
160000000     -9.9095898    -56.5166893   25.2969208    146.4277954   -29.3031902   25.0834808    -23.7039204   -44.2053909   
170000000     -10.0275002   -58.1980400   25.1775303    145.0686035   -29.2154903   27.4262104    -23.9880009   -40.2060585   
180000000     -10.1482296   -60.0930595   25.0552998    143.6831055   -29.1145897   26.9492092    -24.3905201   -38.2669296   
190000000     -10.2625198   -62.0803108   24.9291096    142.3811951   -28.9942703   29.0225506    -24.5443001   -35.1914291   
200000000     -10.3724098   -64.0306778   24.7965698    141.0334015   -28.8878593   28.4434605    -24.8976593   -32.7786293   
210000000     -10.4944296   -65.8109970   24.6646099    139.7817993   -28.8568802   29.4889297    -24.9907799   -29.5553894   
220000000     -10.5730896   -67.8781281   24.5352592    138.5097046   -28.7387199   30.0231609    -25.3555603   -27.9953003   
230000000     -10.6725702   -69.7232132   24.4094105    137.2908020   -28.5671902   30.7677402    -25.3495197   -24.7873096   
240000000     -10.7881603   -71.5243225   24.2706394    136.0655060   -28.5588799   31.4950294    -25.4002094   -22.1651897   
250000000     -10.8901796   -73.2302170   24.1448097    134.8305969   -28.3523903   32.4072418    -25.5596504   -20.3569698   
260000000     -11.0007296   -75.2333069   24.0076103    133.6925964   -28.3431492   33.4304619    -25.4908199   -17.5588703   
270000000     -11.0890903   -77.0373764   23.8750496    132.5354004   -28.2705708   33.2998581    -25.5211105   -15.3887300   
280000000     -11.1661901   -78.7299423   23.7462196    131.4561005   -28.0234108   34.6833496    -25.4570198   -14.1211205   
290000000     -11.2760496   -80.4577103   23.6139908    130.3256073   -27.8890400   34.9051208    -25.5170307   -11.9820099   
300000000     -11.2988100   -82.2536087   23.4755192    129.2642975   -27.7564201   35.9558983    -25.4909000   -11.8370504   
310000000     -11.4335899   -83.9094162   23.3529091    128.2281036   -27.6753292   36.2882195    -25.3270893   -9.7829542    
320000000     -11.5076199   -85.6372528   23.2154102    127.2015991   -27.6930504   36.4835396    -25.3624992   -9.9709120    
330000000     -11.5845299   -87.2152634   23.0833492    126.2090988   -27.5088902   37.1113281    -25.2287102   -7.4383240    
340000000     -11.6725302   -88.7745285   22.9556503    125.2325974   -27.4042091   37.9509201    -25.0907097   -5.9658022    
350000000     -11.7323904   -90.3142014   22.8211803    124.2834015   -27.2973309   38.5662193    -24.9275799   -5.3592381    
360000000     -11.8263903   -91.8420410   22.6920509    123.3470993   -27.1882000   38.9182510    -24.8838406   -4.3198528    
370000000     -11.8972797   -93.4830933   22.5650692    122.4245987   -27.0239296   39.4737587    -24.8605995   -3.9737029    
380000000     -11.9755201   -94.6939011   22.4341106    121.5446014   -27.0205898   39.6103592    -24.6164207   -3.1030090    
390000000     -12.0483198   -96.5407562   22.3041000    120.6158981   -26.8136997   40.4935188    -24.6638298   -2.5382259    
400000000     -12.1071396   -97.8091431   22.1846905    119.7927017   -26.7955208   40.6960983    -24.4991302   -1.2239110    
410000000     -12.1755695   -99.5596771   22.0530605    118.9415970   -26.6917000   41.1724586    -24.5016308   -0.9466138    
420000000     -12.2112103   -100.8902969  21.9351196    118.1111984   -26.5568409   41.5370293    -24.4050407   -0.7238949    
430000000     -12.2716103   -102.3320999  21.8111000    117.2895966   -26.4452591   41.6843300    -24.3735809   0.0956038     
440000000     -12.3304901   -104.1630020  21.6918793    116.4179993   -26.3760109   42.2384109    -24.3666992   1.0756700     
450000000     -12.5772696   -104.6698990  21.5349598    115.7147980   -26.2285309   43.5366898    -23.5613995   1.7302570     
460000000     -12.5110102   -105.8504028  21.4273109    115.0182037   -26.0930004   43.2978783    -23.6790791   0.1567388     
470000000     -12.5557299   -107.0801010  21.3091793    114.2962036   -25.9552898   43.4289207    -23.7445602   0.3016246     
480000000     -12.5906801   -108.3283997  21.1937599    113.5326996   -25.8320007   44.0558281    -23.6268291   0.7113810     
490000000     -12.6453695   -109.6676025  21.0723305    112.8393021   -25.7876205   44.2172508    -23.6147404   1.5494740     
500000000     -12.7172203   -110.7742996  20.9576797    112.1324997   -25.6688099   45.2595482    -23.5350304   0.7207115     
510000000     -12.7532902   -112.0743027  20.8417492    111.3924026   -25.5448303   44.9308510    -23.4500999   1.3979820     
520000000     -12.7741499   -113.1297989  20.7307491    110.7481995   -25.4449406   45.2223282    -23.3725605   1.2119790     
530000000     -12.8056097   -114.2277985  20.6206894    110.0549011   -25.3339806   45.8285294    -23.2169991   1.1745580     
540000000     -12.8743000   -115.3327026  20.5052700    109.3850021   -25.2563896   45.9164696    -23.2579498   1.0010070     
550000000     -12.9061403   -116.4759979  20.3924408    108.7738037   -25.1231594   46.3417206    -23.2073803   1.4226021     
560000000     -12.9540396   -117.6154022  20.2845192    108.1209030   -25.0612297   46.4568596    -23.1534100   0.8569734     
570000000     -12.9919996   -118.6648026  20.1719894    107.4943008   -24.9121704   46.8839798    -23.1162300   0.4389079     
580000000     -13.0461197   -119.7942963  20.0668106    106.8712006   -24.8473396   47.1048317    -23.0952091   1.0153490     
590000000     -13.0509396   -120.7767029  19.9586201    106.2740021   -24.7263699   46.9864006    -23.0266209   0.2264073     
600000000     -13.0956802   -121.6800003  19.8517704    105.6610031   -24.6667099   47.1992607    -22.9706898   0.2923225     
610000000     -13.1087198   -122.8006973  19.7430801    105.0734024   -24.5195694   47.4948311    -22.9940395   -0.3436905    
620000000     -13.1558599   -123.7897034  19.6419506    104.5195007   -24.4621696   47.7137413    -22.8283997   0.1075395     
630000000     -13.1877403   -124.6624985  19.5349998    103.9240036   -24.3425694   48.2772293    -22.8075905   -0.5823256    
640000000     -13.2067099   -125.5634003  19.4344692    103.3992996   -24.2799892   48.0344086    -22.8504200   -0.5713343    
650000000     -13.2369699   -126.4801025  19.3348408    102.8263016   -24.1493206   48.2669907    -22.7673302   -1.0282240    
660000000     -13.2559700   -127.4893036  19.2310390    102.2594986   -24.0830498   48.4863701    -22.7197304   -1.7754500    
670000000     -13.2894201   -128.4927063  19.1324501    101.7141037   -23.9890804   48.6120911    -22.6830196   -1.8693399    
680000000     -13.3093500   -129.4817047  19.0333195    101.1956024   -23.8696899   48.8444786    -22.7336102   -1.6835250    
690000000     -13.3333302   -130.4629059  18.9366798    100.6604996   -23.7769909   48.9449997    -22.6256809   -1.7088360    
700000000     -13.3693399   -131.2929993  18.8379803    100.1244965   -23.7009201   48.9271584    -22.6631699   -2.0393770    
710000000     -13.4043903   -132.2449951  18.7342205    99.5911102    -23.5962105   49.1489983    -22.5824299   -2.1436901    
720000000     -13.4125900   -132.9622040  18.6383400    99.1057205    -23.5154209   49.3589783    -22.5611000   -2.1888671    
730000000     -13.4245596   -133.9405975  18.5488892    98.5921173    -23.4371109   49.5047607    -22.6187496   -1.9088570    
740000000     -13.4773102   -134.8988037  18.4501209    98.0834579    -23.3510208   49.7761192    -22.5091591   -2.5417550    
750000000     -13.4947596   -135.6233063  18.3552399    97.6711426    -23.2845802   49.9493599    -22.4328403   -3.1063280    
760000000     -13.5108099   -136.6296997  18.2667694    97.1275787    -23.1770096   49.9772491    -22.3497200   -2.8125451    
770000000     -13.5153103   -136.9750061  18.1721096    96.7127991    -23.0621490   50.0840111    -22.2840595   -3.9263761    
780000000     -13.5039101   -137.7216034  18.0862198    96.2454529    -22.9764595   50.2550201    -22.2956104   -4.2219272    
790000000     -13.4996204   -138.6730042  17.9952202    95.7653275    -22.8902798   50.1978798    -22.3029900   -4.2854948    
800000000     -13.5429802   -139.3381958  17.9061699    95.3009262    -22.7939091   50.2274094    -22.2400703   -4.3868990    
810000000     -13.5545301   -139.9638062  17.8141708    94.8567810    -22.7117596   50.4345818    -22.1961098   -5.2891169    
820000000     -13.5646400   -140.5809937  17.7309799    94.4586563    -22.6332893   50.6143494    -22.3149204   -5.2599349    
830000000     -13.5696697   -141.4987030  17.6475792    93.9560165    -22.5349693   50.6112785    -22.2809505   -5.7362719    
840000000     -13.5662098   -142.1699066  17.5660095    93.5154724    -22.4844894   50.6151199    -22.2987900   -5.8391538    
850000000     -13.5319099   -143.3885040  17.4723606    92.9797897    -22.4158401   50.6872215    -22.2205009   -5.5075469    
860000000     -13.6391296   -143.7046967  17.3763103    92.6747589    -22.3121796   51.0053902    -22.0767803   -6.5043602    
870000000     -13.6710300   -144.0731049  17.2944603    92.3215332    -22.2609196   51.0255089    -22.0247498   -6.5180178    
880000000     -13.6460896   -144.3927002  17.2264500    91.8832169    -22.1309700   50.9589500    -21.9916191   -7.5671291    
890000000     -13.6548796   -145.1439056  17.1398506    91.4386978    -22.0806293   50.8315392    -22.0293007   -7.7521510    
900000000     -13.6616602   -145.8695984  17.0596695    91.0084229    -22.0059299   51.0474396    -22.0854206   -7.9206018    
910000000     -13.6756897   -146.3238983  16.9838200    90.6152878    -21.9124508   51.0392799    -22.0277596   -8.4857502    
920000000     -13.6428499   -146.7846069  16.8997002    90.2026825    -21.8216801   50.9425201    -22.0088291   -8.9148960    
930000000     -13.7001200   -147.5888977  16.8274002    89.7814484    -21.7346001   51.0462799    -22.0051899   -9.6398344    
940000000     -13.6880903   -148.2236023  16.7457600    89.3819733    -21.6669502   51.1237106    -21.9630108   -9.5676184    
950000000     -13.6872196   -148.8204041  16.6680298    88.9870682    -21.6034107   50.9703407    -21.9657001   -9.9994469    
960000000     -13.6975098   -149.3836975  16.5937595    88.5784912    -21.5301094   51.2015495    -21.9841709   -9.9391222    
970000000     -13.7235699   -149.9819946  16.5142002    88.1758270    -21.4662991   51.2601585    -21.9908009   -10.7515898   
980000000     -13.7186403   -150.7158966  16.4409294    87.7913437    -21.4011898   51.1989517    -22.0094700   -11.0711699   
990000000     -13.7416697   -151.1645966  16.3624401    87.3845367    -21.3338699   51.2217598    -21.9607697   -11.0842600   
1000000000    -13.7117004   -151.8661041  16.2871494    87.0354538    -21.2037601   51.2074394    -22.0023899   -11.2539396   
1025000000    -13.7371302   -153.2612000  16.1076794    86.0706329    -21.0312996   51.1729813    -21.9373703   -12.4576597   
1050000000    -13.7509899   -154.6470947  15.9292097    85.1689224    -20.8849907   51.2360191    -21.9410591   -12.7047997   
1075000000    -13.7772903   -156.1033020  15.7472897    84.2213135    -20.7147903   51.1110497    -21.8783894   -13.1114101   
1100000000    -13.7919903   -157.2837982  15.5796404    83.3419037    -20.5398407   51.2084503    -21.8836899   -14.8087797   
1125000000    -13.7620802   -158.5252075  15.4082403    82.4698563    -20.3963299   51.2121506    -21.8709698   -15.2114697   
1150000000    -13.7640104   -159.6260071  15.2465801    81.6117020    -20.1802998   51.0262489    -21.8638802   -16.4743500   
1175000000    -13.7268400   -160.9087982  15.0837202    80.7520065    -20.0432091   50.9237289    -21.8526192   -17.4960899   
1200000000    -13.7465801   -161.9425964  14.9234896    79.9252090    -19.8902092   50.8733902    -21.8842907   -18.7527695   
1225000000    -13.7405195   -163.0650940  14.7694502    79.0774918    -19.7440300   50.7080803    -21.8383102   -19.6694794   
1250000000    -13.7359505   -164.2149048  14.6121302    78.2642822    -19.5981808   50.5601196    -21.8506298   -20.7026806   
1275000000    -13.7377901   -165.0596008  14.4593401    77.4276962    -19.4361801   50.4260788    -21.9074593   -21.4021606   
1300000000    -13.7182598   -166.2154999  14.3151302    76.6331100    -19.3123207   50.4260406    -21.8638802   -22.0612392   
1325000000    -13.6998396   -167.3627930  14.1694603    75.8209763    -19.1375599   50.2166595    -21.8736706   -23.0722599   
1350000000    -13.7225103   -168.2359009  14.0270700    75.0540390    -19.0063210   49.9988098    -21.8181801   -24.0611305   
1375000000    -13.7228003   -169.0601959  13.8911200    74.3085403    -18.8574505   49.7043991    -21.8673000   -24.6113892   
1400000000    -13.6863699   -170.1313934  13.7534800    73.5238190    -18.7250004   49.6470604    -21.7350292   -25.6004391   
1425000000    -13.6779003   -170.8777008  13.6174803    72.7586288    -18.6134796   49.5301819    -21.7346706   -26.6062508   
1450000000    -13.6852398   -171.7315979  13.4820004    71.9939270    -18.4455509   49.2045708    -21.7123795   -27.5115509   
1475000000    -13.6921101   -172.2890930  13.3517904    71.2680435    -18.3385696   49.2349281    -21.7730694   -28.8061104   
1500000000    -13.6844797   -173.1235962  13.2235699    70.4966736    -18.2123299   48.8497810    -21.6799603   -29.4076500   
1525000000    -13.6792297   -173.8119965  13.1008997    69.8122864    -18.0868607   48.5841713    -21.6501904   -30.4496002   
1550000000    -13.6880198   -174.7747955  12.9808502    69.0584564    -17.9580593   48.4664803    -21.5173607   -31.8825893   
1575000000    -13.6802902   -175.5135956  12.8564596    68.3339767    -17.8188591   48.2458191    -21.5065994   -32.6258888   
1600000000    -13.6923199   -176.1257019  12.7327604    67.5939331    -17.7220306   48.0425682    -21.5476799   -33.0615883   
1625000000    -13.6747398   -177.1436005  12.6165895    66.8874817    -17.5858402   47.7747192    -21.4083805   -34.1525497   
1650000000    -13.6618099   -177.7252045  12.4976301    66.1764069    -17.4668198   47.3563805    -21.4970207   -34.6324005   
1675000000    -13.6672602   -178.7758026  12.3824596    65.4800262    -17.3510609   47.1045685    -21.3448200   -35.6280098   
1700000000    -13.6676102   -179.1618042  12.2656002    64.8486633    -17.2287102   47.0651703    -21.3014297   -35.8442612   
1725000000    -13.6587496   -179.8789063  12.1659203    64.1394119    -17.1500702   46.8491707    -21.2495995   -37.6710892   
1750000000    -13.6523895   179.7254028   12.0521603    63.4101181    -17.0141907   46.5990715    -21.2539806   -38.4296608   
1775000000    -13.6846600   178.9252014   11.9432201    62.7534904    -16.9119301   46.3735695    -21.1230392   -39.2289009   
1800000000    -13.6327801   178.4936066   11.8369999    62.0886917    -16.8046703   46.0257683    -21.1007805   -40.1006699   
1825000000    -13.6762896   177.7696075   11.7325401    61.3848495    -16.6808395   45.6871414    -21.0272694   -41.0857506   
1850000000    -13.7110300   177.2474060   11.6313295    60.7359390    -16.5959492   45.3531113    -20.9338493   -42.0486717   
1875000000    -13.7069702   176.6049957   11.5341501    60.0622711    -16.5098305   45.0551300    -20.8551502   -42.6858406   
1900000000    -13.7204304   176.1437073   11.4311895    59.4215317    -16.3813705   44.7679901    -20.8379192   -43.5659294   
1925000000    -13.7794504   175.2604980   11.3350201    58.7022705    -16.3129997   44.5354881    -20.7492008   -44.5652618   
1950000000    -13.7472095   174.6981049   11.2409296    58.0584984    -16.1839199   44.2678490    -20.6485405   -45.4645004   
1975000000    -13.7415104   174.0278931   11.1430998    57.4045601    -16.0813408   43.9156494    -20.6578999   -46.2626801   
2000000000    -13.7372599   173.5682983   11.0506697    56.7438202    -15.9885397   43.7363091    -20.5438995   -47.1012192   
2025000000    -13.7571201   173.0243988   10.9519300    56.0798912    -15.8934498   43.3208809    -20.5120907   -47.7047195   
2050000000    -13.7357702   172.5664978   10.8596897    55.4280014    -15.8111000   42.9026299    -20.3692398   -48.8229294   
2075000000    -13.7867298   171.6398926   10.7644100    54.8343811    -15.7269602   42.5416908    -20.2776203   -48.5918808   
2100000000    -13.7876902   171.4019928   10.6805601    54.1994400    -15.6298599   42.2518997    -20.1239700   -49.9509697   
2125000000    -13.7799597   171.4445038   10.5952196    53.5386887    -15.5338402   42.1869888    -20.0541801   -50.8889503   
2150000000    -13.8259201   170.7407074   10.5090704    52.8924103    -15.4455795   41.7325706    -19.9768105   -51.7491913   
2175000000    -13.8458796   170.1685944   10.4166899    52.2196693    -15.3380899   41.4474411    -20.0310402   -52.4957390   
2200000000    -13.8739901   169.6634979   10.3405800    51.6218910    -15.2341204   41.0985909    -19.8177299   -53.2744408   
2225000000    -13.8919802   168.9367065   10.2608995    50.9925003    -15.1661997   40.7800903    -19.7949505   -53.9922981   
2250000000    -13.8623104   168.4528046   10.1787796    50.3026390    -15.0814304   40.2698288    -19.6663303   -54.6292000   
2275000000    -13.9196997   168.0124969   10.0894098    49.7086906    -14.9865599   39.9823494    -19.6038208   -55.5161514   
2300000000    -14.0062599   167.7182007   10.0046196    49.1641502    -14.9246502   39.8140984    -19.5115108   -55.4197617   
