!Mini-Circuits Laboratory
!S-Parameters, Port extension performed
!Model: PGA-103+
!Run / Lot / Date Code: N/A / BP170-001-01-101EV / 1210
!Fixture: TB-313
!Network Analyzer: PNA-X N5242A - 423 4 ports;  Serial number: 71013
!Date: 5/23/2012 at 10:34:50 AM
!S/N: Unit# 1
!Tested with: VDD=5V AT 25C
!
# Hz  S  dB  R  50
!Frequency    S11 dB        S11 Deg       S21 dB        S21 Deg       S12 dB        S12 Deg       S22 dB        S22 Deg       
10000000      -1.5533880    -19.1813297   29.4602509    167.7207947   -34.6259804   53.7693901    -5.7989502    -23.3906708   
20000000      -3.4241641    -32.1675682   28.3849907    163.1139984   -32.2883682   42.9464188    -8.1442757    -44.0403709   
30000000      -5.0617661    -36.8797417   27.6001492    161.5420074   -31.5959301   34.8919182    -10.5324898   -52.8772202   
40000000      -6.2293348    -38.9650002   27.1115608    160.8269958   -30.7720203   28.6035194    -12.4838800   -57.4987793   
50000000      -6.9425459    -39.4794884   26.8160400    160.2174988   -30.7631207   21.0930309    -13.9252396   -59.1347694   
60000000      -7.6114058    -41.1145782   26.5401897    159.6593933   -30.5803604   24.9594898    -15.5528803   -61.2147598   
70000000      -8.0965738    -41.8843117   26.3793297    158.6047974   -30.0721302   23.3011799    -16.8492107   -60.7727814   
80000000      -8.4381466    -42.8976707   26.2299404    157.4479065   -30.0028496   22.6589108    -17.9527397   -59.9334106   
90000000      -8.7300158    -44.1839600   26.0993805    156.2261963   -29.9340992   22.8382492    -18.9953308   -59.0024986   
100000000     -8.9441147    -45.6408691   25.9802895    154.8995972   -29.8391094   22.5805607    -19.8728008   -57.8180618   
110000000     -9.1062956    -47.0770798   25.8644505    153.4609985   -29.6553898   23.1750393    -20.5430698   -55.7505302   
120000000     -9.2867594    -48.9908791   25.7569408    152.1110992   -29.7682400   24.1799793    -21.3299904   -53.9522514   
130000000     -9.4527588    -50.6679382   25.6282291    150.6840057   -29.6744804   22.3152905    -22.1060295   -51.7162094   
140000000     -9.5685387    -52.5424500   25.5143909    149.2509003   -29.6040897   24.0355301    -22.4872894   -49.9334297   
150000000     -9.7613554    -54.5329018   25.3922100    147.8872070   -29.4057198   25.4575405    -23.2217808   -47.6477814   
160000000     -9.8749886    -56.2885399   25.2717609    146.4720001   -29.2842693   25.8437004    -23.6451607   -45.0676994   
170000000     -9.9574575    -57.9686813   25.1488400    145.1284943   -29.0193291   25.4361706    -23.8659000   -42.8178291   
180000000     -10.0888996   -59.9377518   25.0280495    143.7406006   -29.1478806   27.4399700    -24.3007698   -39.0666199   
190000000     -10.1956301   -61.9884911   24.9014893    142.4349976   -28.8300991   27.4850006    -24.5624294   -37.4784508   
200000000     -10.3201904   -63.7822304   24.7700691    141.0874023   -28.8955898   29.8025093    -24.8805199   -34.3111916   
210000000     -10.4326096   -65.6851120   24.6388092    139.8341980   -28.7699108   29.5607796    -25.1547604   -30.8336296   
220000000     -10.5407896   -67.7515793   24.5116901    138.5599060   -28.6787796   30.6725292    -25.3578606   -30.4494209   
230000000     -10.6200504   -69.5650864   24.3834095    137.3379059   -28.5490093   30.7847309    -25.5144901   -27.1185093   
240000000     -10.7489004   -71.3130112   24.2459202    136.1291046   -28.3906994   32.2989883    -25.5861092   -23.8820705   
250000000     -10.8309898   -73.1409531   24.1177197    134.8890076   -28.2579994   31.8252602    -25.5595894   -21.8784008   
260000000     -10.9322996   -75.0865936   23.9828796    133.7413025   -28.2865105   32.9098396    -25.6842308   -19.3023205   
270000000     -11.0351000   -76.7383804   23.8512001    132.6045074   -28.1083393   34.0103683    -25.6888599   -17.7084007   
280000000     -11.1189098   -78.5817032   23.7212391    131.5166016   -27.9948006   34.3686600    -25.6663399   -15.7299099   
290000000     -11.2384501   -80.3809586   23.5868893    130.3961029   -27.8764496   34.7793083    -25.7407799   -13.6803303   
300000000     -11.2628603   -82.0410614   23.4522591    129.3247986   -27.8456898   35.4260712    -25.6353798   -13.1822395   
310000000     -11.3797798   -83.7811432   23.3288403    128.2928925   -27.6651897   36.2585411    -25.5529194   -11.2009497   
320000000     -11.4562998   -85.5350037   23.1923294    127.2686005   -27.6415291   36.8513794    -25.5588093   -11.4113302   
330000000     -11.5337296   -86.9926605   23.0615692    126.2682037   -27.5159492   37.4601593    -25.4566193   -8.9878407    
340000000     -11.6352901   -88.6782837   22.9335403    125.2928009   -27.3559303   37.8996506    -25.3320599   -7.9289780    
350000000     -11.6910696   -90.1670609   22.7980595    124.3526001   -27.2640591   37.8037987    -25.2314205   -7.0305419    
360000000     -11.7688198   -91.6892929   22.6697903    123.4050980   -27.1264706   38.8239098    -25.1356201   -5.9041800    
370000000     -11.8556604   -93.3247299   22.5444698    122.4841003   -27.0427303   39.4420700    -25.1250591   -5.7577081    
380000000     -11.9281502   -94.6170273   22.4127998    121.6026993   -26.8863106   39.7264900    -24.9455204   -4.4244099    
390000000     -11.9998503   -96.3563919   22.2827492    120.6737976   -26.8583603   40.2646217    -24.9665508   -4.4149432    
400000000     -12.0643196   -97.6652527   22.1642208    119.8506012   -26.7171402   40.8380814    -24.7719898   -2.5352750    
410000000     -12.1325903   -99.3871765   22.0323296    118.9989014   -26.6259403   41.2184105    -24.8538208   -1.9781870    
420000000     -12.1589098   -100.6647034  21.9148808    118.1641006   -26.4999008   42.1500702    -24.6766605   -1.6446170    
430000000     -12.2260399   -102.1518021  21.7902393    117.3408966   -26.3537407   41.5013504    -24.6355095   -1.0216390    
440000000     -12.2893105   -103.8755035  21.6710091    116.4800034   -26.2703495   42.5448914    -24.6897106   -0.0835074    
450000000     -12.5201998   -104.5565033  21.5169296    115.7688980   -26.2042503   43.3126411    -23.8238392   0.7826137     
460000000     -12.4619904   -105.7404022  21.4068298    115.0758972   -26.0417709   43.5472717    -24.0100098   -0.9653017    
470000000     -12.5096998   -106.9748001  21.2897491    114.3557968   -25.9284992   43.8242989    -23.9810009   -0.6479585    
480000000     -12.5501204   -108.2062988  21.1750793    113.5970993   -25.8783894   44.2574501    -23.9355202   0.0329693     
490000000     -12.5991402   -109.5840988  21.0534306    112.9000015   -25.7656403   44.3077393    -23.9073696   0.7820283     
500000000     -12.6610498   -110.6575012  20.9387493    112.1921005   -25.6294804   44.3954506    -23.7673092   0.0011266     
510000000     -12.6928902   -111.8197021  20.8246708    111.4597015   -25.5361595   44.9441490    -23.8132000   0.5772507     
520000000     -12.7336702   -112.9990997  20.7124290    110.8084030   -25.3953896   45.2438507    -23.6175594   0.4845615     
530000000     -12.7780600   -114.0266037  20.6007710    110.1146011   -25.3144093   45.5640907    -23.5661106   0.3326215     
540000000     -12.8283596   -115.1864014  20.4869804    109.4506989   -25.1997700   46.1852188    -23.5391903   0.4444829     
550000000     -12.8565197   -116.2826996  20.3740692    108.8404999   -25.0710697   46.0726814    -23.5527992   0.7616490     
560000000     -12.9267197   -117.3836975  20.2673206    108.1762009   -24.9782295   46.9318810    -23.4527397   0.0648565     
570000000     -12.9522896   -118.4106979  20.1548805    107.5478973   -24.8990993   46.6705093    -23.4103298   -0.1819020    
580000000     -12.9968500   -119.6735992  20.0496693    106.9382019   -24.8138599   46.5029106    -23.4039192   0.1678441     
590000000     -13.0004501   -120.6346970  19.9411907    106.3234024   -24.6911602   47.1627388    -23.3388195   -0.3728091    
600000000     -13.0551996   -121.5272980  19.8337994    105.7151031   -24.5877705   47.4047699    -23.2585697   -0.3456839    
610000000     -13.0698204   -122.6763000  19.7246609    105.1222000   -24.5105991   47.6433296    -23.2820606   -0.8053368    
620000000     -13.0854702   -123.6159973  19.6249294    104.5783997   -24.4092903   47.6102295    -23.1632099   -0.1176031    
630000000     -13.1463203   -124.5279007  19.5174999    103.9824982   -24.3361797   48.0889091    -23.1755791   -1.1121280    
640000000     -13.1647596   -125.3924026  19.4177895    103.4532013   -24.2506008   48.1912193    -23.1957493   -1.1257100    
650000000     -13.1833096   -126.3747025  19.3180809    102.8861008   -24.1531792   48.2738914    -23.1033802   -1.3959121    
660000000     -13.2199297   -127.4001999  19.2136707    102.3168030   -24.0327206   48.5239792    -23.0476303   -2.1457560    
670000000     -13.2516603   -128.3191071  19.1162300    101.7651978   -23.9481792   48.6579208    -23.0162296   -2.2169831    
680000000     -13.2616596   -129.4895935  19.0165691    101.2394028   -23.8509808   49.2556496    -23.0667095   -2.3574929    
690000000     -13.2735796   -130.2490997  18.9196606    100.7192001   -23.7656307   48.9360809    -22.9462700   -2.0493510    
700000000     -13.3209600   -131.1974945  18.8218498    100.1733017   -23.6310997   48.9329414    -23.0105591   -2.7054839    
710000000     -13.3596497   -132.1992035  18.7175102    99.6411819    -23.5848904   49.4470596    -22.9334908   -2.4329951    
720000000     -13.3668699   -132.7835999  18.6232109    99.1660233    -23.4863205   49.6172714    -22.8680992   -2.4385540    
730000000     -13.3708496   -133.8598022  18.5323906    98.6413727    -23.4124107   49.6172295    -22.9281197   -2.6664870    
740000000     -13.4318895   -134.8153076  18.4334908    98.1338577    -23.2805691   49.7626419    -22.8480301   -2.6068511    
750000000     -13.4520502   -135.5644989  18.3399506    97.7294235    -23.2143707   49.9097214    -22.7499409   -3.6374800    
760000000     -13.4789696   -136.5303955  18.2487106    97.1858368    -23.1039906   49.8396912    -22.6491108   -3.1497710    
770000000     -13.4773903   -136.8061981  18.1554909    96.7704926    -23.0558796   50.1909294    -22.5526009   -4.0156279    
780000000     -13.4474602   -137.6125946  18.0719395    96.2949066    -22.9394302   50.3439217    -22.6066303   -4.4836249    
790000000     -13.4638700   -138.5503998  17.9810791    95.8096390    -22.8883991   50.3488312    -22.5810204   -4.4740529    
800000000     -13.5145798   -139.3376007  17.8885708    95.3336487    -22.7973595   50.4024506    -22.5685501   -4.7071190    
810000000     -13.5091896   -139.7976990  17.7984009    94.9124832    -22.7028694   50.3109016    -22.5054607   -5.6896181    
820000000     -13.5183401   -140.5330963  17.7146206    94.5083771    -22.5904598   50.4962883    -22.5942192   -5.6693349    
830000000     -13.5182104   -141.3784027  17.6311302    94.0035324    -22.5021191   50.5130997    -22.6227703   -6.0963120    
840000000     -13.5252399   -142.0957031  17.5505009    93.5665665    -22.4347801   50.6338310    -22.6330509   -6.2455640    
850000000     -13.4845200   -143.3713989  17.4573097    93.0294037    -22.3920403   50.6905289    -22.5331192   -5.5341501    
860000000     -13.6129398   -143.5296936  17.3617001    92.7338333    -22.2719193   50.7926788    -22.3907509   -7.2388840    
870000000     -13.6353197   -143.9329987  17.2800293    92.3706284    -22.2209797   50.7222099    -22.3414898   -6.7630820    
880000000     -13.6062698   -144.3383942  17.2121696    91.9341507    -22.0939598   50.9824104    -22.2994595   -7.8012280    
890000000     -13.6067200   -144.9763947  17.1252403    91.4868088    -22.0424404   51.0457611    -22.3343697   -8.1088037    
900000000     -13.6160698   -145.8350983  17.0430298    91.0608597    -21.9794197   50.9826508    -22.3658009   -8.3954506    
910000000     -13.6206198   -146.2084961  16.9676895    90.6700821    -21.8926601   50.9380112    -22.3170300   -8.7865324    
920000000     -13.6082296   -146.6873932  16.8832607    90.2441635    -21.8022099   51.0822182    -22.3285103   -9.1320200    
930000000     -13.6594200   -147.5471954  16.8112793    89.8310394    -21.7199306   50.8450394    -22.3306103   -9.8948135    
940000000     -13.6520796   -148.2238007  16.7297306    89.4331970    -21.6557293   50.9776802    -22.2967091   -9.9625797    
950000000     -13.6395102   -148.7111053  16.6523895    89.0337601    -21.5591793   51.0041008    -22.2692699   -10.3606796   
960000000     -13.6681700   -149.3361969  16.5791397    88.6245270    -21.4901905   51.0754509    -22.2824497   -10.5250502   
970000000     -13.6678200   -149.8274994  16.4989700    88.2174835    -21.4424801   51.0223885    -22.2927303   -11.1100702   
980000000     -13.6821203   -150.6669006  16.4255199    87.8487930    -21.3591099   51.1661911    -22.2731609   -11.3792000   
990000000     -13.7028103   -151.1629944  16.3474293    87.4284210    -21.2698097   51.2602081    -22.2386494   -11.5412302   
1000000000    -13.6661396   -151.8318024  16.2737293    87.0838394    -21.2101994   51.0474510    -22.3142700   -11.7820501   
1025000000    -13.6997995   -153.1231995  16.0926094    86.1208191    -21.0135307   51.0431099    -22.2517509   -12.9679403   
1050000000    -13.7049904   -154.5341034  15.9154902    85.2138519    -20.8402691   51.3416100    -22.2523594   -12.9312496   
1075000000    -13.7205095   -156.1286011  15.7336998    84.2647095    -20.6923008   51.2030106    -22.1778698   -13.6426601   
1100000000    -13.7530403   -157.2245026  15.5631599    83.3806686    -20.5092297   51.2044792    -22.1882992   -14.9698496   
1125000000    -13.7235899   -158.4776001  15.3937302    82.5199738    -20.3351803   50.9141197    -22.1765308   -15.6211395   
1150000000    -13.7156496   -159.5171051  15.2322598    81.6689529    -20.1680603   50.8957214    -22.1601295   -16.8942394   
1175000000    -13.7089005   -160.8022003  15.0705004    80.7933502    -19.9979305   51.0040588    -22.1485806   -18.0309200   
1200000000    -13.7038603   -161.9122009  14.9101801    79.9726486    -19.8535404   50.9351692    -22.2101097   -18.9987507   
1225000000    -13.7100496   -163.0068054  14.7566099    79.1187897    -19.7111301   50.7173882    -22.1207809   -19.8578396   
1250000000    -13.6976204   -164.1309967  14.5979605    78.3017273    -19.5538197   50.4651184    -22.1687298   -20.8942699   
1275000000    -13.7067404   -165.0106964  14.4456100    77.4748535    -19.3959503   50.4261589    -22.2524605   -21.9487801   
1300000000    -13.6841202   -166.1728973  14.3002195    76.6776962    -19.2630005   50.3889885    -22.1846695   -22.7077007   
1325000000    -13.6475096   -167.3939056  14.1574297    75.8609619    -19.1290493   50.1291809    -22.1642494   -23.2407207   
1350000000    -13.6806002   -168.2093048  14.0128698    75.0982132    -18.9654102   50.0235405    -22.0873299   -24.7478294   
1375000000    -13.6734200   -169.0834045  13.8769703    74.3521423    -18.8462105   49.8305016    -22.1485596   -25.2872601   
1400000000    -13.6557198   -170.0079041  13.7393799    73.5682831    -18.6864891   49.5202713    -22.0588703   -26.1416607   
1425000000    -13.6518602   -170.9075012  13.6042995    72.7894516    -18.5739594   49.5868912    -22.0492496   -27.0455704   
1450000000    -13.6355696   -171.7102966  13.4684200    72.0352707    -18.4400806   49.2146301    -22.0084305   -28.0887108   
1475000000    -13.6523600   -172.2066956  13.3380003    71.3091736    -18.3023605   49.0150795    -22.0837803   -29.1339397   
1500000000    -13.6375303   -173.1141968  13.2121601    70.5344467    -18.1788597   48.9319000    -21.9980602   -30.2593899   
1525000000    -13.6455002   -173.7306976  13.0871897    69.8551178    -18.0601406   48.7363892    -21.9547691   -30.7376308   
1550000000    -13.6540604   -174.7980042  12.9670601    69.0930634    -17.9175797   48.4542007    -21.8484192   -32.4360809   
1575000000    -13.6428404   -175.5088043  12.8425198    68.3719025    -17.8053093   48.2473297    -21.7998009   -33.1037102   
1600000000    -13.6362104   -176.1408997  12.7183304    67.6407623    -17.6505508   47.9821892    -21.8456402   -33.5469017   
1625000000    -13.6336899   -177.2727966  12.6041698    66.9156113    -17.5692196   47.6729202    -21.7355595   -34.5910187   
1650000000    -13.6274405   -177.8659973  12.4843903    66.2238235    -17.4512997   47.4362411    -21.7732601   -35.0303497   
1675000000    -13.6245298   -178.8251953  12.3709297    65.5294189    -17.3283005   47.2235985    -21.6899796   -36.1618004   
1700000000    -13.6271000   -179.2185059  12.2512197    64.8625183    -17.2056103   47.0053101    -21.6302605   -36.2944489   
1725000000    -13.6204700   -179.8067017  12.1536503    64.1799469    -17.1085091   46.6887512    -21.5197105   -37.9586105   
1750000000    -13.6087599   179.6367950   12.0389795    63.4539986    -16.9649696   46.4875717    -21.5193596   -38.9455605   
1775000000    -13.6485996   178.8708038   11.9304504    62.7879105    -16.8764305   46.2045097    -21.4183807   -39.7884293   
1800000000    -13.6130600   178.3345032   11.8257999    62.1279182    -16.7854309   45.9770889    -21.3723507   -40.6294708   
1825000000    -13.6422501   177.6540985   11.7203999    61.4258804    -16.6700001   45.6664505    -21.3082294   -41.5899010   
1850000000    -13.6617002   177.2483063   11.6190996    60.7773590    -16.5508499   45.4784088    -21.1962700   -42.6347389   
1875000000    -13.6735096   176.6497040   11.5208597    60.1084518    -16.4614792   45.0415192    -21.1158695   -43.4269600   
1900000000    -13.6928902   176.0986938   11.4160299    59.4681206    -16.3663292   44.8299904    -21.0950508   -43.9810295   
1925000000    -13.7416000   175.2512054   11.3205996    58.7352486    -16.2725506   44.3937607    -21.0215797   -45.2582397   
1950000000    -13.7127104   174.6206970   11.2271204    58.0850182    -16.1525002   44.1975517    -20.9315605   -46.1380615   
1975000000    -13.7182903   173.9467010   11.1295795    57.4466515    -16.0818806   43.8469582    -20.9403706   -46.9121513   
2000000000    -13.7181501   173.4485016   11.0371199    56.7784309    -15.9621096   43.6185188    -20.8195801   -47.6926994   
2025000000    -13.7384596   173.0261993   10.9399595    56.1309509    -15.8894100   43.2631302    -20.7429504   -48.5401993   
2050000000    -13.7073097   172.2958069   10.8475904    55.4579010    -15.7712898   42.8294601    -20.6536198   -49.3173904   
2075000000    -13.7433596   171.5102997   10.7498598    54.8697586    -15.7042799   42.6569786    -20.5649300   -49.3459702   
2100000000    -13.7492399   171.3547974   10.6656399    54.2411194    -15.5857401   42.3113518    -20.3553505   -50.6132317   
2125000000    -13.7468996   171.3368073   10.5830603    53.5739708    -15.5006104   42.0470581    -20.3035507   -51.4826508   
2150000000    -13.7813702   170.6372070   10.4986601    52.9264603    -15.4025402   41.8207207    -20.2161694   -52.3072510   
2175000000    -13.8113604   170.1497040   10.4045200    52.2596703    -15.3165598   41.4344597    -20.2503605   -52.7793503   
2200000000    -13.8287697   169.5630951   10.3293505    51.6608582    -15.2252598   41.0767593    -20.0637207   -54.0542908   
2225000000    -13.8484697   168.8681030   10.2478504    51.0297203    -15.1426802   40.7413712    -20.0474701   -54.7212296   
2250000000    -13.8254700   168.3681030   10.1644001    50.3329697    -15.0693998   40.3004494    -19.9167099   -55.2654190   
2275000000    -13.8731499   167.9358978   10.0768404    49.7442703    -14.9879799   39.9497986    -19.8289700   -56.2493782   
2300000000    -13.9795904   167.5131989   9.9907913     49.2045403    -14.9229898   39.6851692    -19.7418499   -55.7568817   
