!Mini-Circuits Laboratory
!S-Parameters, Port extension performed
!Model: PGA-103+
!Run / Lot / Date Code: N/A / BP170-001-01-101EV / 1210
!Fixture: TB-313
!Network Analyzer: PNA-X N5242A - 423 4 ports;  Serial number: 71013
!Date: 5/24/2012 at 5:32:15 PM
!S/N: Unit# 1
!Tested with: Vdd=5.25V at -45C
!
# Hz  S  dB  R  50
!Frequency    S11 dB        S11 Deg       S21 dB        S21 Deg       S12 dB        S12 Deg       S22 dB        S22 Deg       
10000000      -1.6780230    -23.8788795   30.1246490    167.4772949   -37.1780090   70.8303528    -6.4484868    -31.7782497   
20000000      -3.5081289    -36.2271805   28.9574699    161.4747009   -33.0458794   41.6758499    -8.4302073    -51.4356499   
30000000      -5.2789798    -42.3784218   28.0577908    159.5870972   -31.2964001   33.6864395    -10.7755003   -63.7430801   
40000000      -6.6451139    -45.3978386   27.4787197    158.8706970   -30.6796703   28.7557697    -12.8892698   -71.9020462   
50000000      -7.5428090    -47.7680283   27.1169796    158.3618011   -29.7410393   29.1026192    -14.6016102   -78.0142822   
60000000      -8.5035458    -48.1221199   26.8000698    157.9738007   -29.7684708   22.2718601    -16.4224300   -82.1654510   
70000000      -9.0115328    -49.1235008   26.6051407    157.0527039   -30.0128994   23.4121895    -17.7577991   -86.3969803   
80000000      -9.4577761    -50.0455093   26.4325600    156.0453033   -29.8931694   22.5924892    -19.1919498   -89.1678772   
90000000      -9.8307724    -51.2334595   26.2855797    154.9488068   -29.7509804   22.6599598    -20.5584297   -91.8467789   
100000000     -10.1043901   -52.4498405   26.1537304    153.7357025   -29.6676006   22.7319698    -21.8298702   -93.8440399   
110000000     -10.3212299   -53.7201385   26.0328293    152.3950958   -29.4620609   23.6065292    -23.1601009   -95.0738907   
120000000     -10.5694199   -55.1789207   25.9155598    151.1282959   -29.5156803   21.7266998    -24.3950996   -97.7898026   
130000000     -10.7076302   -57.3106689   25.7845306    149.7709045   -29.1786900   25.1666393    -25.6271000   -100.9712982  
140000000     -10.8969603   -58.4023018   25.6661491    148.4111938   -29.4361496   24.1024399    -27.0328293   -100.3142014  
150000000     -11.1395903   -60.4191208   25.5427608    147.1031036   -29.2560806   24.4871407    -28.5149803   -103.7449036  
160000000     -11.2725496   -62.0371590   25.4199600    145.7326050   -29.1756001   25.7329006    -30.4158707   -104.4328003  
170000000     -11.3842402   -63.8675308   25.2990303    144.4288025   -29.1829796   25.7176609    -32.0353889   -104.3691025  
180000000     -11.5441303   -65.5831909   25.1775894    143.0830994   -29.0904007   27.6093807    -34.2159195   -104.6871033  
190000000     -11.6572504   -67.4388275   25.0513592    141.7917023   -28.8556099   28.1820698    -36.4639015   -102.2285004  
200000000     -11.7854300   -69.4896469   24.9209404    140.4853973   -28.8624897   28.3773098    -39.5856514   -108.8110962  
210000000     -11.9042101   -71.1637726   24.7904205    139.2480011   -28.7027607   29.7205391    -45.1570892   -106.8830032  
220000000     -12.0250196   -73.4378967   24.6609192    138.0075989   -28.6370792   29.6205502    -51.8106804   -121.1669006  
230000000     -12.1081400   -75.3655701   24.5350609    136.7982025   -28.4620895   30.5922699    -56.4615593   71.4127579    
240000000     -12.2520399   -77.1581726   24.3981495    135.5980988   -28.3624001   31.0689793    -44.3889999   71.0900879    
250000000     -12.3561201   -78.9322968   24.2726707    134.3791046   -28.3185005   32.2627296    -40.9220085   71.0844116    
260000000     -12.4393101   -81.0660934   24.1373196    133.2494049   -28.1667194   32.6042213    -38.1445808   67.8022766    
270000000     -12.5292597   -82.7247925   24.0037708    132.1101074   -28.1229095   33.5346794    -36.5490990   68.3891373    
280000000     -12.6027298   -84.9315567   23.8760509    131.0381012   -27.9571991   33.5559006    -35.0838699   67.0273819    
290000000     -12.7199602   -86.6019669   23.7447491    129.9104004   -27.8535099   34.4918594    -33.6440887   67.5537872    
300000000     -12.7176905   -88.3543930   23.6100407    128.8542023   -27.7211208   35.5779419    -33.3560486   63.4462395    
310000000     -12.8545504   -89.9540329   23.4860802    127.8336029   -27.7211609   35.7810211    -32.1688194   61.5714111    
320000000     -12.9017601   -91.9045181   23.3512306    126.8059006   -27.5035191   35.8251686    -31.5519009   60.0597191    
330000000     -12.9816799   -93.4416428   23.2182102    125.8174973   -27.4272995   36.5172691    -30.8410492   59.7246590    
340000000     -13.0563097   -95.0659637   23.0925007    124.8543015   -27.3540306   37.1001587    -30.0916805   58.2364693    
350000000     -13.0732698   -96.6716690   22.9603291    123.9188004   -27.2359905   38.2619095    -29.6938400   56.1412582    
360000000     -13.1683903   -98.1671600   22.8348904    122.9747009   -27.1048603   38.4432182    -29.2019100   55.6602783    
370000000     -13.2374897   -99.8239365   22.7081509    122.0577011   -26.9737892   38.4487801    -28.8889809   55.1742516    
380000000     -13.3106899   -100.9505997  22.5808105    121.1854019   -26.8640404   39.1073189    -28.4419804   53.3019409    
390000000     -13.3843699   -102.6845016  22.4525700    120.2488022   -26.7573891   39.6161308    -28.2343102   52.2160492    
400000000     -13.4582300   -103.9801025  22.3344593    119.4253998   -26.6198597   40.3435097    -27.7166405   50.9236488    
410000000     -13.4975204   -105.6115036  22.2024708    118.5940018   -26.5701408   40.2695808    -27.6117401   50.7572403    
420000000     -13.5282602   -106.8097000  22.0890198    117.7573013   -26.4477901   40.9775505    -27.3496208   49.1034508    
430000000     -13.5906000   -108.1690979  21.9653397    116.9543991   -26.3182907   41.2090912    -27.0909405   47.4563599    
440000000     -13.6385603   -109.5748978  21.8456802    116.1473999   -26.2021599   41.8269691    -26.8965492   46.5506706    
450000000     -13.7134800   -110.7530975  21.7288303    115.3804016   -26.1213093   42.1212311    -26.5748901   45.3748512    
460000000     -13.7570896   -112.1489029  21.6074600    114.5922012   -25.9788799   42.8129005    -26.5527401   44.2757301    
470000000     -13.8172903   -113.4263992  21.4878292    113.8514023   -25.9478607   42.5108604    -26.3357201   43.8450508    
480000000     -13.8727598   -114.6556015  21.3715706    113.0764999   -25.7420998   43.0544510    -26.1247292   43.2320099    
490000000     -13.9426203   -115.9742966  21.2498093    112.3973999   -25.7138596   43.1823807    -25.8409100   42.3670616    
500000000     -14.0067301   -117.4554977  21.1369801    111.6404037   -25.5513096   43.8523293    -25.7551308   41.2055702    
510000000     -14.1411800   -118.4518967  21.0081406    110.9446030   -25.5072594   44.4832306    -25.4668407   39.8545494    
520000000     -14.1099501   -119.3561020  20.9083996    110.2899017   -25.3629303   44.3064194    -25.4235306   38.1335106    
530000000     -14.1575899   -120.4606018  20.8004303    109.6032028   -25.2558098   44.7623787    -25.3250904   36.6092911    
540000000     -14.2050800   -121.6153030  20.6881504    108.9346008   -25.1592808   44.8849411    -25.3233604   36.1604996    
550000000     -14.2147198   -122.8270035  20.5797100    108.3050003   -25.0942307   45.3320198    -25.1380501   35.7038116    
560000000     -14.2741604   -123.9748993  20.4752102    107.6312027   -24.9602795   45.6198997    -25.2180996   34.9534988    
570000000     -14.2842102   -125.0759964  20.3632393    106.9830017   -24.8200607   46.0995789    -25.1256809   33.9485893    
580000000     -14.3093300   -126.3640976  20.2615108    106.3468018   -24.7279396   45.9264908    -25.0491791   33.8827515    
590000000     -14.3035698   -127.4487991  20.1541500    105.7240982   -24.6061306   46.1618385    -24.9918194   32.3827209    
600000000     -14.3474798   -128.4062958  20.0492992    105.0976028   -24.5071507   46.3691788    -24.8296700   31.4873905    
610000000     -14.3246403   -129.4360962  19.9389000    104.4882965   -24.4243507   46.2506714    -24.8091202   31.2230701    
620000000     -14.3748302   -130.4667053  19.8411903    103.9186020   -24.3370705   46.5934296    -24.6069603   30.9242306    
630000000     -14.3661299   -131.4190979  19.7368793    103.3147964   -24.2662792   46.7968903    -24.6195507   29.6342297    
640000000     -14.3835802   -132.3636932  19.6377907    102.7782974   -24.1483707   46.7481613    -24.5484600   29.6881695    
650000000     -14.4053297   -133.2821045  19.5389500    102.1920013   -24.0284901   46.9615593    -24.4124794   28.4709492    
660000000     -14.4139605   -134.1638947  19.4363403    101.6024017   -23.9384995   47.4640198    -24.3516197   27.7660408    
670000000     -14.4315901   -135.0549927  19.3393898    101.0509033   -23.8776093   47.1493111    -24.2775192   26.8842106    
680000000     -14.4208002   -135.9750061  19.2417698    100.5161972   -23.7318096   47.7174606    -24.2307301   26.6090698    
690000000     -14.4363699   -136.8348999  19.1445503    99.9838867    -23.6699600   47.7197189    -24.0208702   25.9715996    
700000000     -14.4579401   -137.5955048  19.0485401    99.4357910    -23.5881691   47.8644981    -24.0826893   25.3085308    
710000000     -14.4329004   -138.4281006  18.9535408    98.8905029    -23.5140400   47.9790306    -24.0223808   24.7451305    
720000000     -14.4773998   -139.1331024  18.8570595    98.3583984    -23.3859806   48.2072296    -23.8940296   24.9915905    
730000000     -14.4868298   -140.0592957  18.7667503    97.8681335    -23.2992706   48.0744400    -23.8151207   24.3728809    
740000000     -14.5160599   -140.9911957  18.6715202    97.3279800    -23.2378292   48.4085083    -23.8484192   23.7502193    
750000000     -14.5425501   -141.8403931  18.5799999    96.8807526    -23.1320705   48.3484001    -23.6951008   22.9220791    
760000000     -14.5577803   -142.5549011  18.4936295    96.3448410    -23.0561905   48.6269417    -23.6049500   22.1339703    
770000000     -14.5948601   -143.3343048  18.3942299    95.8434219    -22.9703503   48.6713104    -23.4927101   21.9874191    
780000000     -14.5573902   -143.7359924  18.3123798    95.4093475    -22.8752499   48.7230988    -23.4742794   20.7415104    
790000000     -14.5577898   -144.8816071  18.2234306    94.8927383    -22.7767792   48.9535103    -23.5147495   20.6833096    
800000000     -14.6357603   -145.0932007  18.1368408    94.4793472    -22.6854095   48.8908386    -23.4276695   19.8750992    
810000000     -14.5763502   -145.9459076  18.0521107    93.9724426    -22.6302299   48.8187408    -23.4303703   18.9290791    
820000000     -14.6173000   -146.8209991  17.9668903    93.5372772    -22.5335503   48.8945694    -23.4897499   18.9461708    
830000000     -14.6139498   -147.7055969  17.8846493    93.0215378    -22.4687691   49.0175514    -23.5450592   18.2183399    
840000000     -14.6190300   -148.5493927  17.8017597    92.5786972    -22.3604393   49.0952187    -23.6042194   17.9415703    
850000000     -14.6203203   -149.3816071  17.7128391    92.1125031    -22.2941399   48.9258804    -23.4114704   17.6577892    
860000000     -14.5809002   -149.7505035  17.6320400    91.6772003    -22.1793594   49.1506310    -23.4637508   16.5813408    
870000000     -14.5840998   -150.6053009  17.5506592    91.2226334    -22.0847702   49.1356316    -23.5247097   16.2798996    
880000000     -14.5837698   -151.2494965  17.4721394    90.7737885    -22.0259304   49.1935310    -23.5544395   15.8514700    
890000000     -14.5855103   -151.9878998  17.3859406    90.3144684    -21.9360905   49.1149788    -23.5643806   15.7018099    
900000000     -14.5551701   -152.9013062  17.3070393    89.8741379    -21.8679504   49.0334587    -23.5991402   15.8071699    
910000000     -14.5129004   -153.7763062  17.2297592    89.3987732    -21.7980995   49.0046806    -23.6124401   15.9778795    
920000000     -14.5495996   -154.1824951  17.1396408    89.0221405    -21.7383595   49.2653809    -23.5029297   14.9619303    
930000000     -14.5815096   -155.3898926  17.0635109    88.5824203    -21.6688995   49.2733688    -23.5692291   14.0417604    
940000000     -14.6166601   -156.0621948  16.9774303    88.2278671    -21.6090508   49.3307495    -23.4062996   13.3474998    
950000000     -14.5815802   -156.1078033  16.9104595    87.8417206    -21.5242596   49.4003792    -23.5368404   12.1521502    
960000000     -14.5312996   -156.6936035  16.8396397    87.3757782    -21.4033298   49.3659782    -23.6477299   12.3234301    
970000000     -14.5560503   -157.2769928  16.7603607    86.9828873    -21.3576508   49.1968498    -23.6126499   11.0908804    
980000000     -14.5281696   -157.8724976  16.6905499    86.5825272    -21.2906494   49.1543388    -23.6502094   11.0800505    
990000000     -14.5466003   -158.3045044  16.6166401    86.1435165    -21.1827908   49.3768501    -23.6385193   10.8491402    
1000000000    -14.4958401   -158.9803925  16.5412502    85.7732697    -21.0788002   49.3190689    -23.6521606   10.3442602    
1025000000    -14.5265703   -160.2335968  16.3621006    84.7654724    -20.9511604   49.2747002    -23.5548191   8.4526367     
1050000000    -14.5297499   -161.4888000  16.1899300    83.8122787    -20.7580109   49.0682411    -23.5792408   7.5612860     
1075000000    -14.5444803   -162.8103943  16.0154495    82.8406830    -20.5798702   48.9789009    -23.5064507   5.3676710     
1100000000    -14.5765800   -164.0973053  15.8497105    81.8617630    -20.4129009   48.9676704    -23.5716305   3.6840031     
1125000000    -14.5515499   -165.5522003  15.6805000    80.9347076    -20.2545605   48.8344612    -23.5467300   2.6847329     
1150000000    -14.5410404   -166.8746033  15.5234499    79.9960709    -20.0714798   48.6022415    -23.6186104   1.1182970     
1175000000    -14.5093098   -168.6087952  15.3518400    79.0461273    -19.9267197   48.3663406    -23.6396294   0.6101323     
1200000000    -14.5705795   -169.5164032  15.1892004    78.2643127    -19.7603493   48.5663109    -23.5512905   -1.6323580    
1225000000    -14.4758797   -170.6999054  15.0406399    77.3368607    -19.6179905   48.2244606    -23.6329708   -2.7209680    
1250000000    -14.4009104   -171.6161957  14.8869801    76.4912567    -19.4724903   48.0731812    -23.7193203   -3.2055399    
1275000000    -14.3836403   -172.6983948  14.7294598    75.5997772    -19.3188000   47.7167892    -23.7834091   -3.3843639    
1300000000    -14.3225899   -173.3058929  14.5918398    74.7611465    -19.1450405   47.6173782    -23.8135891   -4.6585112    
1325000000    -14.2850904   -174.3820038  14.4491100    73.9213028    -18.9988194   47.4905396    -23.8017902   -5.5421438    
1350000000    -14.2618999   -175.2075958  14.3116598    73.0864563    -18.8753300   47.2690887    -23.8033695   -6.8562088    
1375000000    -14.2802496   -175.9028931  14.1787996    72.2892685    -18.7271004   47.0087700    -23.8999996   -8.0231276    
1400000000    -14.2617798   -177.0263977  14.0425797    71.4456635    -18.5797691   46.8040199    -23.7545891   -10.2000599   
1425000000    -14.2576504   -177.8807983  13.9101496    70.6273727    -18.4554596   46.4889984    -23.7905998   -11.8865099   
1450000000    -14.2711201   -178.8759003  13.7779598    69.7940063    -18.3172798   46.3251305    -23.8757305   -13.8793602   
1475000000    -14.3142796   -179.7888031  13.6476498    69.0035477    -18.1944199   46.0161781    -24.0026493   -15.7111902   
1500000000    -14.2843199   179.1652985   13.5226297    68.1737671    -18.0424404   45.8083496    -23.8974705   -17.1005096   
1525000000    -14.2558699   178.3139038   13.4006100    67.4296188    -17.9392395   45.3250084    -23.9753399   -18.4019699   
1550000000    -14.2495098   177.1956024   13.2777596    66.6138611    -17.8038692   45.0828705    -23.8757706   -20.2076492   
1575000000    -14.2043200   176.5278931   13.1541004    65.8534775    -17.6875992   44.9389801    -23.8567200   -20.6083298   
1600000000    -14.1670198   175.9933014   13.0310001    65.0674973    -17.5480995   44.6307297    -23.8516006   -20.8076401   
1625000000    -14.1297302   174.9403076   12.9163904    64.3043137    -17.4450798   44.2809792    -23.7742691   -22.0984097   
1650000000    -14.1016197   174.4750061   12.7978601    63.5657692    -17.3414497   43.8749390    -23.7706909   -22.6457195   
1675000000    -14.0682402   173.7702026   12.6878796    62.8224792    -17.2024708   43.6016617    -23.6982899   -24.4332905   
1700000000    -14.0770798   173.4367065   12.5687704    62.1197510    -17.0947399   43.4282417    -23.6129208   -24.3626194   
1725000000    -14.0650101   172.7436066   12.4740601    61.3660507    -16.9694595   43.1226616    -23.5479202   -27.1724396   
1750000000    -14.0834303   172.3535004   12.3617697    60.5826797    -16.8708305   42.6227989    -23.6042004   -28.7549896   
1775000000    -14.1341000   171.4100952   12.2551003    59.8635406    -16.7559509   42.5654411    -23.4739609   -30.2546997   
1800000000    -14.0939703   170.6994019   12.1514196    59.1364594    -16.6371498   42.0735092    -23.4919605   -31.5159206   
1825000000    -14.1332903   169.7234955   12.0444698    58.3810196    -16.5231800   41.5951004    -23.4278603   -33.4470901   
1850000000    -14.1455002   169.1020966   11.9467802    57.6526108    -16.4277306   41.2986717    -23.3701096   -35.3307800   
1875000000    -14.1632795   168.3876953   11.8501797    56.9508018    -16.3231907   41.0083008    -23.2286892   -36.2802010   
1900000000    -14.1643000   167.8567963   11.7453299    56.2327614    -16.2269096   40.6295090    -23.2535896   -37.0420189   
1925000000    -14.1849604   166.9337006   11.6498499    55.4861603    -16.1403008   40.2503395    -23.0864601   -38.3827591   
1950000000    -14.1642704   166.5039978   11.5549898    54.7919083    -16.0332298   39.9447708    -22.9932804   -38.8074188   
1975000000    -14.1070204   166.0872955   11.4612398    54.0983505    -15.9287395   39.7422218    -22.8537502   -39.6729698   
2000000000    -14.0966997   165.6593018   11.3684397    53.3545609    -15.8289804   39.1836205    -22.6981792   -40.9560204   
2025000000    -14.1341496   165.6497040   11.2739000    52.6970711    -15.7470102   39.0457306    -22.4909401   -41.5493507   
2050000000    -14.1383801   165.2944031   11.1790895    51.9869385    -15.6294498   38.4059792    -22.3468304   -42.7790909   
2075000000    -14.1239500   164.9703979   11.1002102    51.3069992    -15.5635700   38.1675987    -22.2086391   -43.7886581   
2100000000    -14.2285604   164.2460938   11.0052900    50.6037712    -15.4547300   37.8435593    -22.0912991   -44.6889915   
2125000000    -14.2368097   164.2373962   10.9239101    49.9027786    -15.3647900   37.5393906    -21.9689999   -45.9228096   
2150000000    -14.2965603   163.3829956   10.8420200    49.1874695    -15.2626896   37.0595703    -21.9559307   -47.4039803   
2175000000    -14.3180103   162.5794067   10.7496595    48.4710999    -15.1828403   36.6252594    -22.0502110   -47.9045181   
2200000000    -14.3122597   161.8054962   10.6735201    47.8346786    -15.0811195   36.1725883    -21.8037491   -49.6250496   
2225000000    -14.3281803   160.8753967   10.5920000    47.1405792    -15.0009403   35.7472115    -21.8420200   -50.3244095   
2250000000    -14.2655096   160.5021057   10.5120096    46.4123993    -14.9029303   35.5342789    -21.6704597   -51.0841789   
2275000000    -14.2871704   159.8296967   10.4213400    45.7431602    -14.8326397   34.9803810    -21.6422691   -52.0261803   
2300000000    -14.3256998   159.7550964   10.3460798    45.1454887    -14.7641697   34.5784988    -21.4377308   -52.2925415   
