!Mini-Circuits Laboratory
!S-Parameters, Port extension performed
!Model: PGA-103+
!Run / Lot / Date Code: N/A / BP170-001-01-101EV / 1210
!Fixture: TB-313
!Network Analyzer: PNA-X N5242A - 423 4 ports;  Serial number: 71013
!Date: 5/23/2012 at 10:35:42 AM
!S/N: Unit# 1
!Tested with: VDD=3V AT -45C
!
# Hz  S  dB  R  50
!Frequency    S11 dB        S11 Deg       S21 dB        S21 Deg       S12 dB        S12 Deg       S22 dB        S22 Deg       
10000000      -1.5271029    -21.6279297   29.2210598    168.6708069   -36.7303085   71.6933289    -6.2866521    -28.2968597   
20000000      -3.2102230    -32.6471100   28.1916695    162.7792969   -32.1083488   46.3725510    -8.0842600    -45.2581406   
30000000      -4.7984238    -38.5448189   27.3631897    160.8365021   -30.5145206   34.6252708    -10.2352695   -56.7010803   
40000000      -6.0814528    -41.1322784   26.8158798    160.0131073   -30.2626209   29.5322609    -12.2612000   -63.1041985   
50000000      -6.9371390    -43.2799911   26.4735298    159.4754944   -29.2271309   29.0147800    -13.8347797   -67.0509262   
60000000      -7.7051458    -43.3125191   26.1722698    159.0709991   -29.5199699   22.4509296    -15.4335899   -69.5504608   
70000000      -8.1448221    -44.5892906   25.9872398    158.1392059   -29.6440105   23.3362293    -16.6201401   -72.1378784   
80000000      -8.5627794    -45.4627419   25.8243504    157.1222992   -29.4731808   23.2312393    -17.8658199   -73.0801010   
90000000      -8.8949203    -46.5744400   25.6851101    156.0290070   -29.2587395   23.0118694    -18.9340191   -73.5942535   
100000000     -9.1330004    -47.8344803   25.5615692    154.8312073   -29.2361298   23.1358891    -19.8950005   -74.1543884   
110000000     -9.3125010    -49.1865082   25.4463100    153.5171967   -29.0730591   23.3157101    -20.8203392   -73.5028000   
120000000     -9.5208588    -50.5625305   25.3371105    152.2839966   -28.9731808   22.9690895    -21.6715794   -74.0278473   
130000000     -9.6873598    -52.1189804   25.2133598    150.9532928   -29.1588497   25.6262703    -22.3853607   -73.7680817   
140000000     -9.8077421    -53.7286987   25.1020794    149.6262054   -28.9498501   24.2268105    -23.2961807   -72.4695663   
150000000     -10.0400600   -55.5977898   24.9877396    148.3307953   -28.8995495   24.5484905    -24.1769409   -72.9240494   
160000000     -10.1598101   -57.2299194   24.8719692    147.0050964   -28.6875706   25.3473396    -24.9212093   -71.4123611   
170000000     -10.2611799   -58.9926605   24.7580795    145.7124023   -28.6036701   26.1606102    -25.6619492   -69.3535080   
180000000     -10.3889704   -60.6810989   24.6460705    144.3901978   -28.4991894   26.4800892    -26.2623806   -67.9692230   
190000000     -10.5144396   -62.6515312   24.5296307    143.1253967   -28.4926796   26.7912693    -27.0918007   -65.2382889   
200000000     -10.6596003   -64.5415268   24.4042091    141.8224945   -28.3342800   27.6515999    -27.7356091   -64.6279373   
210000000     -10.7695904   -66.2616882   24.2824593    140.6168060   -28.2390594   28.3411293    -28.4395294   -61.1536102   
220000000     -10.8663797   -68.3412933   24.1624603    139.3786926   -28.1459599   29.4355297    -29.1898193   -59.7806587   
230000000     -10.9554300   -70.2609634   24.0432091    138.1795044   -28.0733604   30.1116199    -29.9980392   -56.3847389   
240000000     -11.0898399   -72.0440369   23.9142494    136.9871063   -27.9101791   30.4025192    -30.6965008   -52.2313690   
250000000     -11.1973696   -73.8794632   23.7945709    135.7709961   -27.8509102   31.4191494    -31.3847198   -49.0689583   
260000000     -11.2972097   -75.9803696   23.6679096    134.6376953   -27.7427292   31.9446297    -31.8916702   -43.6651497   
270000000     -11.3888197   -77.5892029   23.5424309    133.5054932   -27.6238003   33.3204117    -32.6425705   -39.3837509   
280000000     -11.4592199   -79.6100998   23.4213104    132.4263000   -27.4939899   33.1052017    -33.0259590   -34.9050903   
290000000     -11.5717697   -81.3315506   23.2944908    131.3181000   -27.4037209   33.8858719    -33.6746483   -29.0293999   
300000000     -11.6028500   -83.3100815   23.1660309    130.2619019   -27.3338299   34.1124611    -33.4173508   -26.5262108   
310000000     -11.7039700   -84.9131927   23.0489902    129.2393951   -27.2525005   34.9556999    -33.6891518   -19.5064201   
320000000     -11.7553701   -86.6779099   22.9180794    128.2073059   -27.1044998   35.4687881    -33.8182297   -16.9102898   
330000000     -11.8310299   -88.1867828   22.7940407    127.2207031   -26.9264908   35.6254005    -33.5307198   -9.1783791    
340000000     -11.8982401   -89.8030777   22.6746597    126.2565994   -26.8759403   36.6016197    -33.5035591   -4.0528460    
350000000     -11.9460297   -91.4715500   22.5462303    125.3109970   -26.7908497   36.4788513    -33.0450096   -1.2471180    
360000000     -12.0360003   -92.9388428   22.4228001    124.3682022   -26.6568699   37.4654884    -32.6982994   2.0106471     
370000000     -12.1105604   -94.4982681   22.3024693    123.4390030   -26.6041698   37.5574303    -32.6738701   3.2258561     
380000000     -12.1714602   -95.7029037   22.1799908    122.5559006   -26.4464493   38.1136894    -32.0970917   6.2986898     
390000000     -12.2373695   -97.4127731   22.0566502    121.6342010   -26.3571892   38.9485893    -32.2324409   7.8089609     
400000000     -12.3160601   -98.8148727   21.9440002    120.8067017   -26.2476902   38.8330307    -31.7165699   10.6011105    
410000000     -12.3869305   -100.3707962  21.8158207    119.9513016   -26.1475792   39.4364014    -31.5253201   12.7771902    
420000000     -12.4036903   -101.5207977  21.7077808    119.1081009   -26.0344906   39.6761208    -31.1939602   11.6292601    
430000000     -12.4926701   -102.9263000  21.5866108    118.2902985   -25.8664093   40.3283310    -30.9248600   12.2919703    
440000000     -12.5348301   -104.1970978  21.4729691    117.4859009   -25.7917309   40.9313889    -30.7789993   12.4152899    
450000000     -12.6088896   -105.5318985  21.3584995    116.7248001   -25.8028393   41.4158707    -30.3631496   13.6007900    
460000000     -12.6624804   -106.8879013  21.2411308    115.9115982   -25.6808491   41.1416893    -30.2573299   12.8199997    
470000000     -12.7617397   -108.2322998  21.1256199    115.1684036   -25.4985294   41.4400101    -30.1599693   13.5980701    
480000000     -12.7940502   -109.4691010  21.0140305    114.3806000   -25.4674492   41.4498405    -29.8491497   14.5759697    
490000000     -12.8879604   -110.7807999  20.8943195    113.6771011   -25.3565693   42.3003387    -29.5958805   15.2305403    
500000000     -12.9543400   -112.0968018  20.7855797    112.9208984   -25.2323303   42.4803810    -29.3025208   15.0034103    
510000000     -13.0479002   -113.4028015  20.6627197    112.1977005   -25.1746101   43.0745697    -29.0365601   13.8658800    
520000000     -13.0720596   -114.2322998  20.5633793    111.5581970   -25.0282803   42.9827805    -28.9024601   12.7179003    
530000000     -13.1129904   -115.3768005  20.4594593    110.8505020   -24.8546200   43.7327499    -28.6286106   12.1326303    
540000000     -13.1517096   -116.5134964  20.3502903    110.1773987   -24.8123608   44.0505409    -28.6740303   11.8850203    
550000000     -13.1865301   -117.7726974  20.2426491    109.5307999   -24.6990299   44.0918503    -28.6213493   12.9623404    
560000000     -13.2301302   -118.9453964  20.1404991    108.8414993   -24.6191406   44.2330284    -28.5539398   11.8570604    
570000000     -13.2483101   -120.1255035  20.0314598    108.1791992   -24.5404301   44.4943504    -28.4762192   11.9568396    
580000000     -13.2804604   -121.3868027  19.9316006    107.5449982   -24.4493294   44.7638588    -28.3131008   12.3964100    
590000000     -13.2957897   -122.3750000  19.8269901    106.9144974   -24.3175793   44.8789597    -28.1706295   11.5985699    
600000000     -13.3260803   -123.3731995  19.7243099    106.2804031   -24.2166595   44.9065399    -28.0788593   11.5619802    
610000000     -13.3025703   -124.5285034  19.6191406    105.6555023   -24.1346493   45.2384987    -28.0451908   11.4128704    
620000000     -13.3537903   -125.4940033  19.5203094    105.0868988   -24.0196304   45.3609085    -27.7851601   12.2918701    
630000000     -13.3748503   -126.5757980  19.4162998    104.4778976   -23.9605007   45.5006104    -27.6983891   10.7282000    
640000000     -13.3887596   -127.4096985  19.3204708    103.9233017   -23.8538609   45.7976685    -27.6524105   11.5067101    
650000000     -13.3955097   -128.2926025  19.2245197    103.3274002   -23.7399807   45.7683105    -27.4649296   10.5517902    
660000000     -13.4257097   -129.2993011  19.1231804    102.7293015   -23.6551495   46.0545692    -27.3932896   10.1956396    
670000000     -13.4386797   -130.2445068  19.0304298    102.1634979   -23.5469799   46.2737198    -27.2879200   9.8937511     
680000000     -13.4400301   -131.1629944  18.9320698    101.6274033   -23.4771194   46.6010590    -27.2525291   10.8376398    
690000000     -13.4482603   -132.0290985  18.8407001    101.0835037   -23.4022198   46.5562401    -26.9449692   11.0671701    
700000000     -13.4805698   -132.8502045  18.7435799    100.5292969   -23.2748699   46.5591202    -26.9739704   10.8965302    
710000000     -13.4823999   -133.8148041  18.6486206    99.9825974    -23.2004299   46.6072197    -26.9782696   9.9645844     
720000000     -13.5227699   -134.4790955  18.5554008    99.4554596    -23.1423702   46.7782402    -26.7806301   11.0193100    
730000000     -13.5376196   -135.4042969  18.4664001    98.9408188    -23.0625191   47.1717987    -26.7332096   10.8054304    
740000000     -13.5595303   -136.4615936  18.3743591    98.3836899    -22.9456406   47.2275200    -26.7042103   10.4410601    
750000000     -13.6188698   -137.2597961  18.2828598    97.9285812    -22.8614502   47.3168297    -26.5834103   9.7350368     
760000000     -13.6188002   -138.0838928  18.1996803    97.3819427    -22.7851906   47.2734795    -26.5664291   9.1112947     
770000000     -13.6453695   -138.8144989  18.1033001    96.8905334    -22.7034092   47.7553902    -26.3343792   8.8706942     
780000000     -13.6452103   -139.3963013  18.0174694    96.4295425    -22.6361809   47.6481209    -26.3519192   7.9111099     
790000000     -13.6640396   -140.4196930  17.9319496    95.9453201    -22.5119095   47.5352287    -26.3051300   8.1329746     
800000000     -13.6905499   -140.9833984  17.8481197    95.4650497    -22.4276695   47.6922417    -26.3210392   7.8791242     
810000000     -13.6716499   -141.8079071  17.7626705    94.9687881    -22.3438301   47.7489510    -26.2681808   6.8393841     
820000000     -13.6879702   -142.6569977  17.6785908    94.5296097    -22.2621002   47.7675209    -26.4707909   6.7999368     
830000000     -13.6934099   -143.7033997  17.5982704    94.0069504    -22.1932392   47.8845406    -26.4923897   5.9003420     
840000000     -13.7142096   -144.5063934  17.5172501    93.5470734    -22.0907097   48.0869102    -26.5584106   5.7954350     
850000000     -13.7010498   -145.3200073  17.4301796    93.0762863    -22.0176105   47.9145088    -26.4005108   6.0622692     
860000000     -13.6944103   -145.8683014  17.3499393    92.6443710    -21.9582806   48.0458908    -26.3932991   4.8289442     
870000000     -13.6960497   -146.6811066  17.2681503    92.1716614    -21.8651295   48.0287895    -26.4585705   4.5712638     
880000000     -13.7188501   -147.4105988  17.1881695    91.7370529    -21.8113194   48.2716713    -26.4311600   4.6657138     
890000000     -13.6847897   -148.1157990  17.1055298    91.2760468    -21.7304096   48.0631905    -26.4692192   4.2685270     
900000000     -13.6984396   -148.9804993  17.0262909    90.8157272    -21.6347694   47.9687881    -26.6198902   4.6967359     
910000000     -13.6692801   -149.9364014  16.9474697    90.3336334    -21.5702705   48.0425415    -26.5738201   4.7022510     
920000000     -13.7042799   -150.2666016  16.8622894    89.9808273    -21.5043106   48.1286697    -26.4244995   3.5223460     
930000000     -13.7456799   -151.1408997  16.7926102    89.5423965    -21.4276009   48.0969086    -26.4084206   2.6061759     
940000000     -13.7173901   -151.8370056  16.7119694    89.1196594    -21.3525105   48.4727402    -26.3496609   2.0277591     
950000000     -13.7089500   -152.1903076  16.6373291    88.7073898    -21.2716198   48.2798805    -26.4027901   0.8719015     
960000000     -13.6952696   -152.8643951  16.5681000    88.2638321    -21.2034893   48.2884903    -26.4784603   0.8544641     
970000000     -13.7087898   -153.4824066  16.4886494    87.8524323    -21.1422806   48.3274384    -26.4676991   0.0089405     
980000000     -13.7176399   -154.1873932  16.4184093    87.4600601    -21.0485592   48.4082298    -26.5019894   -0.2335299    
990000000     -13.7033701   -154.4790955  16.3432693    87.0257568    -20.9653206   48.2922287    -26.5252495   -0.7242732    
1000000000    -13.6681995   -155.2154999  16.2707005    86.6342392    -20.8884201   48.1554489    -26.5444508   -0.5402083    
1025000000    -13.7134104   -156.5395966  16.0944099    85.6099777    -20.7264099   48.3631783    -26.3309002   -2.3782589    
1050000000    -13.7313004   -157.9969025  15.9214201    84.6404266    -20.5513191   48.2593613    -26.3748093   -3.1688030    
1075000000    -13.7442503   -159.3847961  15.7490101    83.6617279    -20.3814907   48.2103310    -26.2677193   -4.9049540    
1100000000    -13.7708702   -160.8571014  15.5848598    82.6787567    -20.2038593   48.1594315    -26.3831997   -6.3667068    
1125000000    -13.7462902   -162.3811951  15.4163103    81.7250595    -20.0497608   47.9799995    -26.3800106   -7.0223660    
1150000000    -13.7291803   -163.7059937  15.2589703    80.7760925    -19.8862591   47.7524300    -26.4402809   -9.1235590    
1175000000    -13.6948900   -165.4944000  15.0919199    79.8131714    -19.7147503   47.6000404    -26.5160904   -9.1645288    
1200000000    -13.7561703   -166.4342041  14.9329596    79.0198669    -19.5392399   47.6415482    -26.3828697   -12.0543003   
1225000000    -13.6873398   -167.5480042  14.7857199    78.0900269    -19.4106598   47.5849686    -26.4367695   -12.9629803   
1250000000    -13.6365404   -168.6985931  14.6297798    77.2156525    -19.2709198   47.2420502    -26.5919209   -13.7802801   
1275000000    -13.6092100   -169.7480011  14.4788504    76.3106689    -19.1191292   47.1710091    -26.7972107   -13.9121199   
1300000000    -13.5633898   -170.7106018  14.3371401    75.4784088    -18.9801598   46.7253685    -26.6922493   -15.2933302   
1325000000    -13.5556803   -171.8497925  14.1948204    74.6184235    -18.8341007   46.7690811    -26.6743393   -15.9498901   
1350000000    -13.5385704   -172.7398987  14.0579500    73.7773972    -18.7025108   46.5720100    -26.6546307   -17.3324795   
1375000000    -13.5554705   -173.6091003  13.9264803    72.9755478    -18.5405102   46.2602997    -26.6426296   -18.8094406   
1400000000    -13.5517902   -174.6721039  13.7911596    72.1306076    -18.4060898   46.0291481    -26.5376492   -20.9426899   
1425000000    -13.5458899   -175.5876007  13.6594400    71.2972031    -18.2984505   45.8633308    -26.5369797   -23.2500305   
1450000000    -13.5470304   -176.6284027  13.5273304    70.4546585    -18.1398907   45.6752281    -26.5832596   -24.9735508   
1475000000    -13.5659504   -177.4705963  13.3996401    69.6568832    -18.0153198   45.4576607    -26.6963902   -27.0266209   
1500000000    -13.5527401   -178.4250946  13.2749796    68.8399811    -17.8882694   45.1421013    -26.5488796   -28.3604507   
1525000000    -13.5318098   -179.3392029  13.1527596    68.0796738    -17.7660503   44.8659515    -26.5903893   -29.4419193   
1550000000    -13.5264597   179.4801941   13.0315104    67.2621231    -17.6431599   44.4765091    -26.5075703   -31.6117592   
1575000000    -13.4971104   178.5973969   12.9068804    66.4720993    -17.5147991   44.3230591    -26.5235405   -32.1081009   
1600000000    -13.4584398   177.9555054   12.7854004    65.6992798    -17.3789501   43.9978104    -26.5693092   -32.4918213   
1625000000    -13.4369802   176.9380035   12.6725302    64.9282532    -17.2690105   43.7507210    -26.4008598   -33.6620789   
1650000000    -13.4202805   176.3267059   12.5549498    64.1757507    -17.1648102   43.4579391    -26.4362793   -34.1826286   
1675000000    -13.3879604   175.4483948   12.4443703    63.4287605    -17.0366802   43.0410309    -26.2190094   -35.3385391   
1700000000    -13.4028597   174.9483948   12.3285503    62.7198601    -16.9381905   43.0323486    -26.1492596   -35.7735710   
1725000000    -13.3982201   174.2756042   12.2311296    61.9700317    -16.8182106   42.5459900    -26.0294991   -38.7751617   
1750000000    -13.3990498   173.7467041   12.1200504    61.1732903    -16.6928806   42.3632698    -26.0576191   -40.2091904   
1775000000    -13.4404297   172.9165955   12.0129604    60.4518890    -16.5935402   41.9306183    -25.8253403   -42.3470001   
1800000000    -13.4234304   172.2720947   11.9099197    59.7332993    -16.4752407   41.5301819    -25.8019104   -43.3039513   
1825000000    -13.4690704   171.2951050   11.8038101    58.9711990    -16.3646698   41.2717209    -25.6633205   -45.2316093   
1850000000    -13.4782495   170.6181030   11.7086296    58.2454109    -16.2660294   40.9102402    -25.5610504   -47.2772903   
1875000000    -13.4881201   169.8350067   11.6083403    57.5382996    -16.1648102   40.5705605    -25.4145107   -47.5759506   
1900000000    -13.4946804   169.2203064   11.5059204    56.8161583    -16.0811005   40.4188614    -25.4029598   -48.4252701   
1925000000    -13.4927597   168.1907959   11.4123096    56.0467300    -15.9566898   40.0561714    -25.2557793   -49.5901299   
1950000000    -13.4821997   167.7667999   11.3172302    55.3553581    -15.8782301   39.5550308    -25.1519394   -50.3446312   
1975000000    -13.4469995   167.2021942   11.2224197    54.6617813    -15.7879400   39.1346703    -24.9694195   -51.3508682   
2000000000    -13.4165602   166.7525024   11.1327801    53.9265785    -15.6736202   38.8004799    -24.7940407   -51.9259109   
2025000000    -13.4597301   166.6589966   11.0380402    53.2557793    -15.5861597   38.5272408    -24.5877800   -52.5713387   
2050000000    -13.4519501   166.1737976   10.9460201    52.5298004    -15.4768696   38.0695305    -24.3507309   -53.8443413   
2075000000    -13.5077696   165.7073059   10.8608704    51.8763008    -15.3971901   37.8149681    -24.0779705   -54.1787796   
2100000000    -13.5502701   165.2330017   10.7728100    51.1729507    -15.2903900   37.4426804    -23.9393997   -55.3818398   
2125000000    -13.5595198   165.1419983   10.6920605    50.4563408    -15.1984501   37.1879807    -23.7961998   -56.8232994   
2150000000    -13.6264095   164.0444946   10.6087399    49.7425308    -15.1233196   36.7396202    -23.6898594   -58.1234703   
2175000000    -13.6438103   163.4210968   10.5178404    49.0255699    -15.0308504   36.2340088    -23.7765598   -58.2933197   
2200000000    -13.6640596   162.5234070   10.4386396    48.3757591    -14.9318304   35.9896011    -23.5240593   -60.1287498   
2225000000    -13.6524096   161.6981964   10.3618097    47.6911201    -14.8426399   35.5232315    -23.5205402   -60.5724297   
2250000000    -13.6140604   161.0977936   10.2798901    46.9551315    -14.7634401   35.0582390    -23.3047409   -61.1567802   
2275000000    -13.6143503   160.4369965   10.1923103    46.2861595    -14.6662397   34.6813698    -23.2770691   -62.3289909   
2300000000    -13.6737299   160.2890015   10.1127701    45.6938286    -14.5967903   34.4058304    -23.0685997   -61.8739815   
