!Mini-Circuits Laboratory
!S-Parameters, Port extension performed
!Model: PGA-103+
!Run / Lot / Date Code: N/A / BP170-001-01-101EV / 1210
!Fixture: TB-313
!Network Analyzer: PNA-X N5242A - 423 4 ports;  Serial number: 71013
!Date: 5/24/2012 at 5:11:19 PM
!S/N: Unit# 1
!Tested with: Vdd=4.75V at 25C
!
# Hz  S  dB  R  50
!Frequency    S11 dB        S11 Deg       S21 dB        S21 Deg       S12 dB        S12 Deg       S22 dB        S22 Deg       
10000000      -1.7742230    -19.9425602   29.4585400    168.0567017   -34.4034004   66.0238495    -6.3692312    -24.0006695   
20000000      -3.4090979    -32.2319412   28.3483906    163.1564941   -32.7318802   42.0883408    -8.2327204    -44.2562790   
30000000      -5.0111399    -36.9108887   27.5639305    161.5802002   -31.3272991   33.3599892    -10.5342102   -53.1054802   
40000000      -6.1715589    -38.8503799   27.0745792    160.8643036   -30.5587406   28.1039791    -12.5328999   -57.5667686   
50000000      -7.0159779    -40.1643105   26.7761593    160.2637939   -29.7989998   23.1145401    -14.0390501   -59.1341209   
60000000      -7.5953612    -40.5139008   26.5045795    159.7023926   -30.6034107   21.5590801    -15.5081196   -60.5609818   
70000000      -8.0377884    -41.7502098   26.3424492    158.6439056   -30.1235809   22.9974804    -16.7755108   -61.1996307   
80000000      -8.3976250    -42.7906609   26.1931095    157.4933014   -29.9912109   22.4217091    -17.9050903   -60.3264008   
90000000      -8.6906242    -44.0935707   26.0620003    156.2700043   -29.9677906   22.9784508    -18.9487000   -59.4566116   
100000000     -8.8981504    -45.5364189   25.9432793    154.9441071   -29.8052292   22.4785099    -19.7763100   -58.4542503   
110000000     -9.0737896    -47.0851517   25.8280907    153.5124969   -29.6622505   22.6623497    -20.5931702   -56.1031685   
120000000     -9.2409325    -48.7077408   25.7205696    152.1669006   -29.4289608   23.4588299    -21.3261108   -55.0677414   
130000000     -9.4061069    -50.4607391   25.5934105    150.7498016   -29.3600292   24.7235794    -22.0595894   -53.4587212   
140000000     -9.5130348    -52.4271889   25.4783096    149.3139038   -29.5317192   24.8918095    -22.4689808   -51.2531395   
150000000     -9.7235279    -54.4030304   25.3568497    147.9378967   -29.2945004   25.9850807    -23.1681099   -49.3013496   
160000000     -9.8189621    -56.2821198   25.2361393    146.5314026   -29.2982292   25.8309898    -23.6491604   -46.7700500   
170000000     -9.9220715    -57.9840889   25.1146698    145.1871948   -29.1092396   26.7236691    -23.9861794   -43.8444099   
180000000     -10.0221996   -59.8246994   24.9941196    143.8059998   -28.9274101   27.7924900    -24.2163296   -41.5703506   
190000000     -10.1308603   -61.9040489   24.8708591    142.4947968   -28.9032898   27.7083092    -24.6145592   -39.3798218   
200000000     -10.2632999   -63.8031006   24.7380505    141.1553040   -28.9124794   28.8671398    -24.9323502   -36.4923096   
210000000     -10.3735504   -65.5902710   24.6065407    139.9010010   -28.7710896   29.5717793    -25.0814304   -32.6933899   
220000000     -10.4712601   -67.5482407   24.4772606    138.6264038   -28.6152306   30.2636604    -25.4822006   -32.0891113   
230000000     -10.5591297   -69.4205170   24.3521996    137.4219055   -28.4942493   31.4719505    -25.5933399   -29.6298294   
240000000     -10.6833897   -71.1885681   24.2157402    136.1994019   -28.3745804   31.9576607    -25.6942692   -26.3707104   
250000000     -10.7835798   -72.9667130   24.0873699    134.9579010   -28.3819695   32.9249802    -25.7565994   -24.1922798   
260000000     -10.8893003   -74.8666763   23.9534302    133.8222046   -28.1740608   33.3827095    -25.8362293   -21.9470406   
270000000     -10.9736404   -76.5692902   23.8196602    132.6743011   -28.0704308   33.8882103    -25.9454708   -19.7082195   
280000000     -11.0808201   -78.5112762   23.6914406    131.5917053   -27.9221802   34.2943306    -25.9197807   -18.2332306   
290000000     -11.1821604   -80.1074677   23.5589199    130.4662933   -27.8629093   35.5190010    -26.0228291   -16.5854492   
300000000     -11.1859598   -81.9642563   23.4239693    129.3981018   -27.6956596   35.9906006    -25.9410496   -15.9346600   
310000000     -11.3320103   -83.5592270   23.3002110    128.3753052   -27.6308098   36.2602882    -25.8305492   -14.0113802   
320000000     -11.4065800   -85.3251419   23.1638298    127.3272018   -27.5791702   36.6942101    -25.8318195   -13.1533403   
330000000     -11.4959602   -86.8731232   23.0336800    126.3407974   -27.4847507   36.9715996    -25.7559204   -11.5222597   
340000000     -11.5759497   -88.4678497   22.9062195    125.3693008   -27.2935009   37.9935303    -25.6490307   -9.7540121    
350000000     -11.6182003   -90.1060028   22.7726002    124.4263000   -27.2252007   38.2702484    -25.6377392   -8.9354477    
360000000     -11.7301397   -91.5618896   22.6426392    123.4766998   -27.0959301   39.0098190    -25.5354195   -7.7012110    
370000000     -11.8000298   -93.0870285   22.5162392    122.5547028   -27.0221596   39.3880882    -25.5195694   -7.3055458    
380000000     -11.8781500   -94.3308334   22.3850994    121.6871033   -26.9186897   39.9860382    -25.3479500   -6.1061430    
390000000     -11.9449301   -96.1300201   22.2554398    120.7565994   -26.7994003   40.0672989    -25.3340893   -5.9951029    
400000000     -12.0139799   -97.4439316   22.1369400    119.9200974   -26.7198696   40.8846397    -25.2185402   -3.9373391    
410000000     -12.0765200   -99.1122437   22.0053596    119.0785980   -26.5881691   40.7641182    -25.2931709   -3.6317260    
420000000     -12.1074200   -100.3714981  21.8868809    118.2554016   -26.4532909   41.6495399    -25.0937901   -3.1038380    
430000000     -12.1806402   -101.8028030  21.7615700    117.4453964   -26.3752804   41.8101997    -24.9614601   -2.7765460    
440000000     -12.2315998   -103.2170029  21.6395798    116.6428986   -26.2563210   42.4277496    -24.8740292   -2.7833259    
450000000     -12.2934704   -104.4866028  21.5202103    115.8778000   -26.1262608   42.7711105    -24.6930199   -1.8617740    
460000000     -12.3431702   -105.9197006  21.3972702    115.0902023   -26.0089798   43.2623596    -24.7092495   -2.0602989    
470000000     -12.4171200   -107.2830963  21.2761497    114.3488998   -25.8286991   43.3694801    -24.5926094   -1.0030251    
480000000     -12.4950504   -108.7987976  21.1486301    113.5354004   -25.8394794   44.1992111    -24.4022808   -0.7939945    
490000000     -12.5567904   -109.7116013  21.0289307    112.9203033   -25.6694202   44.3783607    -24.4266605   -0.0868883    
500000000     -12.6627197   -110.7732010  20.9062405    112.2276993   -25.6135292   44.6686592    -24.2661991   -0.3326311    
510000000     -12.6791801   -111.6435013  20.7945309    111.5419006   -25.4745693   45.0757217    -24.1169300   -0.4287938    
520000000     -12.6933203   -112.7592010  20.6868191    110.8738022   -25.3824501   45.2905884    -24.0298004   -0.3062179    
530000000     -12.7291203   -113.8526993  20.5768795    110.1764984   -25.2305508   45.2701797    -23.9311504   -0.6080965    
540000000     -12.7759504   -115.0183029  20.4639397    109.5250015   -25.1716805   45.9339790    -24.0097008   -0.4541830    
550000000     -12.8130703   -116.1504974  20.3525200    108.8956985   -25.0409298   46.3718109    -23.9587593   -0.2481559    
560000000     -12.8669701   -117.1663971  20.2433605    108.2367020   -24.9767494   46.4261284    -23.8960400   -0.8467431    
570000000     -12.8951702   -118.3947983  20.1318703    107.6143036   -24.8436699   46.4548683    -23.8311501   -1.0030299    
580000000     -12.9260702   -119.5553970  20.0281391    106.9878998   -24.7369499   46.9466782    -23.7798595   -0.6453148    
590000000     -12.9484196   -120.4521027  19.9199600    106.3817978   -24.6478004   47.0327606    -23.8013592   -1.5487050    
600000000     -12.9988499   -121.4285965  19.8120708    105.7770996   -24.5583706   47.3309097    -23.7202396   -1.4198869    
610000000     -13.0133495   -122.5158005  19.7044296    105.1746979   -24.4224491   47.3849297    -23.7081203   -1.6447370    
620000000     -13.0428305   -123.4989014  19.6017704    104.6193008   -24.3770199   47.6791191    -23.5777092   -0.9578978    
630000000     -13.0732098   -124.3817978  19.4955997    104.0363998   -24.2208309   48.0485802    -23.5990906   -1.7266070    
640000000     -13.1048203   -125.3289032  19.3953209    103.5028000   -24.0905094   48.2020988    -23.5981503   -1.4472409    
650000000     -13.1541700   -126.2440033  19.2961807    102.9251022   -24.1117306   48.4392090    -23.5597305   -2.2501030    
660000000     -13.1504097   -127.1884003  19.1920795    102.3632965   -23.9829197   48.5615807    -23.4529800   -2.5895309    
670000000     -13.2109900   -128.1889038  19.0942707    101.8141022   -23.9303493   48.5010986    -23.4593792   -3.1253049    
680000000     -13.2090502   -129.2660065  18.9944305    101.2897034   -23.7891407   48.7672005    -23.4743690   -3.2126250    
690000000     -13.2342596   -130.1322937  18.8971996    100.7724991   -23.7026405   48.7868614    -23.3369694   -3.1699560    
700000000     -13.2704601   -131.0218964  18.8012905    100.2361984   -23.5689793   49.1624184    -23.4169693   -3.5534410    
710000000     -13.2877197   -132.0186005  18.6995602    99.6994629    -23.5306606   49.2657700    -23.3591404   -3.2376680    
720000000     -13.3094501   -132.6876068  18.6020298    99.2093201    -23.4019108   49.4471016    -23.3323708   -3.2118959    
730000000     -13.3155499   -133.6508026  18.5101604    98.7076569    -23.3350792   49.2509804    -23.3775291   -3.2298601    
740000000     -13.3503199   -134.6804962  18.4155102    98.1923065    -23.2816391   49.4613800    -23.3332691   -3.7431140    
750000000     -13.4039097   -135.4006042  18.3191891    97.7606430    -23.1721992   49.5518990    -23.2430096   -3.7755630    
760000000     -13.4073601   -136.4257965  18.2322006    97.2243271    -23.0951309   49.7437096    -23.1763401   -4.2976971    
770000000     -13.4377298   -136.7391052  18.1349392    96.8138428    -23.0014000   49.9208107    -23.0616894   -4.3318138    
780000000     -13.4046297   -137.4501953  18.0502796    96.3456116    -22.9311104   50.0698204    -23.0601101   -5.1032190    
790000000     -13.4067001   -138.3674011  17.9603691    95.8692398    -22.8268700   50.2657013    -23.0729599   -5.4007101    
800000000     -13.4350100   -139.0482941  17.8733902    95.3969803    -22.7372894   50.4246216    -23.0707397   -5.1742120    
810000000     -13.4272900   -139.8320007  17.7835102    94.9235916    -22.6560097   50.3244781    -22.9879894   -5.7591972    
820000000     -13.4734097   -140.4649048  17.6925793    94.5419922    -22.5601902   50.2778511    -23.0661201   -6.1083131    
830000000     -13.4737101   -141.3294067  17.6121902    94.0416565    -22.5132599   50.5276794    -23.0744705   -6.4545789    
840000000     -13.4769402   -141.9902039  17.5297108    93.6184921    -22.3616409   50.5003815    -23.0696793   -7.0322871    
850000000     -13.4467096   -142.7200012  17.4446602    93.1397629    -22.2833691   50.6438103    -23.0088692   -6.8430939    
860000000     -13.4391403   -143.5196075  17.3548393    92.6853485    -22.2465706   50.6951218    -23.0469608   -6.7114601    
870000000     -13.5652704   -144.3677979  17.2512493    92.3273926    -22.2030392   50.9328690    -22.7231808   -5.6465569    
880000000     -13.5234804   -144.3522949  17.1931705    91.9400787    -22.0848904   50.7561417    -22.7430992   -7.8826981    
890000000     -13.5074396   -145.1002960  17.1080799    91.4749069    -21.9827309   50.7869415    -22.8017693   -8.1064138    
900000000     -13.5061102   -145.9562988  17.0258007    91.0147629    -21.9347000   50.7488899    -22.8276005   -8.2203102    
910000000     -13.6560297   -147.0005035  16.9241199    90.6777878    -21.8633308   50.9342690    -22.6200409   -8.4108458    
920000000     -13.5916204   -146.7377014  16.8609409    90.3122101    -21.7487297   51.0104294    -22.6570301   -9.8709822    
930000000     -13.6239405   -147.4667969  16.7910500    89.8760834    -21.6707096   50.9668694    -22.6956100   -10.6528397   
940000000     -13.6064596   -148.0836945  16.7109699    89.4633713    -21.5769901   51.2333794    -22.6986904   -10.5069799   
950000000     -13.5966997   -148.6884003  16.6344891    89.0632172    -21.5365295   51.0454788    -22.7279701   -11.0295401   
960000000     -13.5896797   -149.3372955  16.5595207    88.6512070    -21.4490204   51.1274796    -22.7297592   -10.7932501   
970000000     -13.6232100   -149.9734039  16.4781799    88.2373505    -21.4078808   51.1646500    -22.6751499   -11.4800501   
980000000     -13.6148396   -150.6401062  16.4050007    87.8787766    -21.3340092   50.9451294    -22.6874104   -11.9354696   
990000000     -13.6454601   -151.0778961  16.3299103    87.4584198    -21.2281704   51.1580582    -22.7136097   -12.1379805   
1000000000    -13.6218700   -151.7700043  16.2545891    87.1008835    -21.1686993   51.1604118    -22.7336903   -12.0162601   
1025000000    -13.6635504   -153.1329041  16.0737095    86.1456604    -20.9851494   51.1195412    -22.6543198   -13.1417999   
1050000000    -13.6642704   -154.5543976  15.8967400    85.2330170    -20.8129692   51.0288696    -22.7006397   -13.6760197   
1075000000    -13.6646299   -156.0908966  15.7182503    84.2758636    -20.6405907   51.0190811    -22.7243996   -14.2744102   
1100000000    -13.6827297   -157.2738037  15.5490599    83.3794327    -20.4671307   50.9298096    -22.7111492   -15.3939104   
1125000000    -13.6621504   -158.5935974  15.3768396    82.5231934    -20.3008900   51.0578308    -22.7070408   -15.8696499   
1150000000    -13.6463299   -159.7534027  15.2161903    81.6176071    -20.1439304   50.8837395    -22.7044296   -16.9268799   
1175000000    -13.7251797   -160.9533997  15.0383301    80.8467331    -19.9931793   50.9588585    -22.4617596   -17.5966797   
1200000000    -13.6759901   -161.8562927  14.8901701    80.0098267    -19.8151207   50.7941704    -22.6017399   -19.5676193   
1225000000    -13.6396599   -162.9660034  14.7387199    79.1354828    -19.6671009   50.5944405    -22.5617409   -20.7104607   
1250000000    -13.6584797   -164.1726990  14.5786304    78.3322372    -19.5191307   50.4395294    -22.5799904   -21.3441792   
1275000000    -13.6555004   -165.0688019  14.4268999    77.4757080    -19.3745193   50.3319893    -22.6776409   -22.4861698   
1300000000    -13.6431198   -166.0686951  14.2820396    76.6895218    -19.2147598   50.2859306    -22.6114998   -23.0948792   
1325000000    -13.6145802   -167.4398041  14.1389103    75.8647232    -19.0717907   49.9838104    -22.6140003   -23.9028797   
1350000000    -13.6408396   -168.2503967  13.9952297    75.1064835    -18.9488297   49.9828606    -22.5768909   -24.9445801   
1375000000    -13.6315699   -169.0973969  13.8593798    74.3518372    -18.7937393   49.7357292    -22.5700607   -25.7461491   
1400000000    -13.6046400   -170.0668030  13.7213097    73.5739136    -18.6603508   49.5842209    -22.5043907   -26.7367001   
1425000000    -13.5844097   -170.8885040  13.5874300    72.7979965    -18.5218601   49.5297699    -22.4919796   -27.7215004   
1450000000    -13.5876904   -171.8359070  13.4500103    72.0253525    -18.3825493   49.1040001    -22.4982491   -28.7246494   
1475000000    -13.6034899   -172.3562012  13.3222198    71.3109970    -18.2763500   49.0725403    -22.5274296   -30.0538292   
1500000000    -13.5976601   -173.1239929  13.1960697    70.5305099    -18.1266804   48.7429085    -22.4276791   -30.8406696   
1525000000    -13.5939503   -173.8840027  13.0714197    69.8481216    -18.0061302   48.5660400    -22.3958302   -31.6664391   
1550000000    -13.6062403   -174.8583984  12.9488802    69.0892334    -17.8915806   48.2069511    -22.2532101   -33.1599197   
1575000000    -13.5989399   -175.6020966  12.8257904    68.3648987    -17.7482204   48.0473213    -22.2508793   -33.8687592   
1600000000    -13.6105404   -176.1331940  12.7014799    67.6425781    -17.6493301   47.7643585    -22.2812901   -34.2010918   
1625000000    -13.5920496   -177.3081970  12.5864000    66.9172516    -17.5262394   47.6330795    -22.1405907   -35.3891983   
1650000000    -13.5964603   -177.8760071  12.4656401    66.2190933    -17.4100208   47.2268791    -22.1788101   -35.8306808   
1675000000    -13.5661001   -178.8690033  12.3536701    65.5188217    -17.2908802   46.9921112    -22.0885105   -37.2173615   
1700000000    -13.5817499   -179.2664948  12.2341404    64.8619690    -17.1847401   46.8070602    -22.0486298   -37.0476685   
1725000000    -13.5762796   -179.9503021  12.1348305    64.1659470    -17.0752907   46.6323395    -21.9223995   -39.0753899   
1750000000    -13.5581398   179.5890045   12.0217304    63.4433289    -16.9433098   46.4086609    -22.0007706   -39.7180099   
1775000000    -13.6048002   178.7830048   11.9137001    62.7728310    -16.8544998   46.2363701    -21.8100395   -40.8656693   
1800000000    -13.5750198   178.2866974   11.8076096    62.1075897    -16.7320595   45.8254814    -21.7818108   -41.4162216   
1825000000    -13.6061401   177.4833984   11.7017803    61.4124107    -16.6283398   45.6134186    -21.7150402   -42.4673195   
1850000000    -13.6267300   177.0482025   11.6016102    60.7537308    -16.5133305   45.0936890    -21.6064091   -43.6417503   
1875000000    -13.6292200   176.4696960   11.5048599    60.0936890    -16.4233208   44.9264603    -21.5138702   -44.1946411   
1900000000    -13.6447697   176.0173035   11.4028702    59.4394684    -16.3145294   44.5736809    -21.4693298   -45.0607986   
1925000000    -13.6998997   175.0962982   11.3038597    58.7219315    -16.2266598   44.4146309    -21.4044704   -46.0062294   
1950000000    -13.6886797   174.5007019   11.2100496    58.0781593    -16.1069298   44.1856194    -21.3135796   -46.9279099   
1975000000    -13.6618500   173.7646942   11.1141396    57.4297791    -16.0331993   43.7120285    -21.2769394   -47.5973511   
2000000000    -13.6697502   173.3007050   11.0213099    56.7567787    -15.9139004   43.3978119    -21.2166996   -48.4214706   
2025000000    -13.6809702   172.9344940   10.9243698    56.1228294    -15.8375597   43.1362114    -21.0875492   -49.5494308   
2050000000    -13.6582403   172.3500977   10.8309698    55.4404182    -15.7258596   42.7090988    -21.0044994   -50.0965691   
2075000000    -13.7089100   171.5666046   10.7390203    54.8430901    -15.6595001   42.5201683    -20.8833504   -50.5597000   
2100000000    -13.7272997   171.1842957   10.6494598    54.2173691    -15.5473003   42.2216988    -20.7355900   -51.6055183   
2125000000    -13.7036304   171.1652069   10.5678196    53.5544395    -15.4566498   41.9702911    -20.6656494   -52.6138000   
2150000000    -13.7569704   170.4570007   10.4827404    52.8945313    -15.3803701   41.5560493    -20.5854607   -53.5692711   
2175000000    -13.7748899   169.9082947   10.3901997    52.2279205    -15.2861204   41.1784210    -20.5837593   -53.9413490   
2200000000    -13.7996502   169.4026031   10.3116703    51.6298103    -15.1923399   41.0505600    -20.4001503   -55.1816711   
2225000000    -13.8350601   168.8791046   10.2312498    51.0102997    -15.1022997   40.4262695    -20.3733292   -55.5873413   
2250000000    -13.7958298   168.2487946   10.1483097    50.3102493    -15.0148296   40.2109299    -20.2070293   -56.2626801   
2275000000    -13.8457899   167.6838989   10.0612497    49.7041016    -14.9462099   39.8560410    -20.1592197   -57.0750198   
2300000000    -13.9258699   167.4049072   9.9778862     49.1642189    -14.8707399   39.6396294    -20.0439606   -57.0469208   
