!Mini-Circuits Laboratory
!S-Parameters, Port extension performed
!Model: PGA-103+
!Run / Lot / Date Code: N/A / BP170-001-01-101EV / 1210
!Fixture: TB-313
!Network Analyzer: PNA-X N5242A - 423 4 ports;  Serial number: 71013
!Date: 5/23/2012 at 10:33:46 AM
!S/N: Unit# 1
!Tested with: VDD=3V AT 25C
!
# Hz  S  dB  R  50
!Frequency    S11 dB        S11 Deg       S21 dB        S21 Deg       S12 dB        S12 Deg       S22 dB        S22 Deg       
10000000      -1.4813740    -18.1152802   28.6789894    168.8379974   -34.4884415   58.9716415    -6.3625598    -22.5358601   
20000000      -3.1457181    -29.8075199   27.6902294    164.1101990   -32.3751602   43.7180595    -8.3542938    -42.4323502   
30000000      -4.6071801    -34.1484184   26.9528904    162.4662933   -31.0325108   35.4217987    -10.5175304   -50.9094200   
40000000      -5.6874781    -35.9044189   26.4890194    161.6625977   -30.6057606   29.2390499    -12.3566303   -55.2711411   
50000000      -6.4155869    -36.9909210   26.2065601    161.0117950   -30.0443192   22.2203407    -13.6526098   -57.0234489   
60000000      -6.9466200    -37.8527718   25.9445095    160.4232025   -30.3505306   25.1645908    -15.0236998   -59.2659492   
70000000      -7.3441439    -39.0663910   25.7899494    159.3462067   -29.8542404   24.5132294    -16.1317291   -59.8760490   
80000000      -7.6517930    -40.2115784   25.6471004    158.1717072   -29.6998405   23.5567207    -17.0457897   -59.7814598   
90000000      -7.9113889    -41.6376915   25.5222206    156.9420013   -29.5593891   23.8926296    -17.8647404   -59.8051796   
100000000     -8.1082697    -43.1218796   25.4077702    155.6152954   -29.4428596   24.0473194    -18.5255604   -59.8508110   
110000000     -8.2604809    -44.6511116   25.2978592    154.1947937   -29.4997807   23.9114609    -19.1380596   -59.4651299   
120000000     -8.4078445    -46.5197487   25.1955700    152.8634949   -29.3741894   25.8439808    -19.6958408   -59.2572594   
130000000     -8.5651703    -48.4412003   25.0728893    151.4358063   -28.6536808   25.0440407    -20.3215904   -59.6352005   
140000000     -8.6663017    -50.2549706   24.9623699    150.0213928   -29.0757809   26.1437302    -20.5772095   -59.1134605   
150000000     -8.8550577    -52.2256393   24.8463097    148.6419983   -28.9148598   27.8969402    -21.1688995   -59.2054596   
160000000     -8.9465742    -54.1049500   24.7300301    147.2483063   -28.8229008   27.6548405    -21.5899696   -59.0630989   
170000000     -9.0466490    -55.8443794   24.6141491    145.9116058   -28.6868191   29.0223408    -21.8944607   -58.1353607   
180000000     -9.1555672    -57.7407913   24.4964600    144.5278015   -28.5668507   29.4904308    -22.2144909   -58.1520004   
190000000     -9.2521067    -59.9157982   24.3759708    143.2286072   -28.5285397   29.1587200    -22.5813599   -57.8761597   
200000000     -9.3623857    -61.7501106   24.2506905    141.8925934   -28.3008308   30.4907494    -22.8933201   -58.2953911   
210000000     -9.4510260    -63.6890106   24.1235008    140.6434021   -28.1317997   31.0785408    -23.2176304   -57.4815102   
220000000     -9.5487061    -65.7447662   24.0002193    139.3907013   -28.0097504   31.2553692    -23.5330009   -58.4762688   
230000000     -9.6405573    -67.5729828   23.8782806    138.1746063   -28.0005894   32.4985085    -23.8339005   -57.6652489   
240000000     -9.7581053    -69.3372726   23.7454109    136.9461975   -27.8264198   32.8362503    -24.1682301   -57.2074585   
250000000     -9.8474560    -71.0491028   23.6231003    135.7162018   -27.6918297   33.5862312    -24.4404907   -57.3172112   
260000000     -9.9458818    -73.0963211   23.4925003    134.5570068   -27.6108799   34.4609909    -24.7294292   -57.0935402   
270000000     -10.0384703   -74.8378983   23.3624592    133.4093018   -27.6241493   35.2395210    -25.0710602   -56.8433609   
280000000     -10.1201601   -76.6891403   23.2394409    132.3332062   -27.4414291   35.5960503    -25.2875710   -56.8241806   
290000000     -10.2216597   -78.4312134   23.1092796    131.2012939   -27.2108002   36.2851906    -25.5962200   -57.0106506   
300000000     -10.2651901   -80.2970200   22.9764404    130.1271057   -27.1599808   36.5816689    -25.6902008   -57.3966904   
310000000     -10.3673897   -81.8719635   22.8571491    129.0899963   -27.0625706   37.2718201    -25.9098892   -56.6628494   
320000000     -10.4509602   -83.6248016   22.7239494    128.0646057   -26.9786301   37.8990593    -26.0727501   -57.4233894   
330000000     -10.5229797   -85.1615677   22.5972404    127.0539017   -26.7838097   38.0833206    -26.3903809   -56.2556801   
340000000     -10.5999298   -86.7599182   22.4742107    126.0762024   -26.7126293   38.9469490    -26.6345196   -55.9110909   
350000000     -10.6395903   -88.4804764   22.3432407    125.1399002   -26.5767307   39.2574387    -26.8147793   -55.2595596   
360000000     -10.7526197   -90.0144196   22.2174397    124.1699982   -26.5013008   39.6596413    -27.1465206   -55.1657410   
370000000     -10.8168201   -91.5585709   22.0938606    123.2529984   -26.3766804   40.5460510    -27.2420692   -55.6144104   
380000000     -10.8812199   -92.8560562   21.9663696    122.3594971   -26.3074799   40.5608902    -27.4423809   -54.4390106   
390000000     -10.9555302   -94.5726013   21.8379803    121.4358978   -26.1186790   41.3868217    -27.6768303   -54.6692009   
400000000     -11.0252399   -95.9931870   21.7233295    120.5864029   -26.0694408   41.5611992    -27.9857693   -53.4233818   
410000000     -11.0930004   -97.5988998   21.5925007    119.7297974   -25.9539509   42.1961098    -28.2543106   -53.3770599   
420000000     -11.1262197   -98.9337997   21.4791794    118.8899002   -25.8255100   42.6509094    -28.3266697   -52.7558403   
430000000     -11.2042103   -100.4075012  21.3541908    118.0581970   -25.7236996   42.3992195    -28.3817997   -51.8653793   
440000000     -11.2580500   -101.7571030  21.2334995    117.2631989   -25.5752602   43.0218506    -28.5188007   -51.9069214   
450000000     -11.3396196   -103.1569977  21.1133194    116.4877014   -25.4317207   43.2309685    -28.6377106   -51.0599098   
460000000     -11.4202700   -104.3406982  20.9843197    115.7281036   -25.4017391   43.4653015    -28.8038502   -51.5447884   
470000000     -11.4646502   -105.4589996  20.8674202    115.0226974   -25.2577000   43.5722885    -29.1013908   -50.3885689   
480000000     -11.5072002   -106.6104965  20.7539997    114.2657013   -25.1819801   44.3151016    -29.0045700   -48.5275497   
490000000     -11.5368900   -108.0475998  20.6360092    113.5518036   -25.0622406   44.9245682    -29.3355503   -47.8592911   
500000000     -11.6125097   -109.2181015  20.5214291    112.8413010   -25.0035095   44.9792404    -29.2728195   -46.9252396   
510000000     -11.6795797   -110.3854980  20.4031601    112.1065979   -24.8679600   45.6033707    -29.2191792   -47.1275406   
520000000     -11.6813002   -111.5358963  20.2973709    111.4441986   -24.7382107   45.7786484    -29.3463802   -46.0252800   
530000000     -11.7088804   -112.6405029  20.1910992    110.7472000   -24.6364193   45.8849297    -29.4358501   -45.6563797   
540000000     -11.7773600   -113.8224030  20.0782795    110.0647964   -24.5450306   46.3418999    -29.4995193   -46.1855202   
550000000     -11.8057804   -114.9830017  19.9640808    109.4418030   -24.4182606   46.1765518    -29.8835201   -45.6773109   
560000000     -11.8639297   -116.1057968  19.8599300    108.7749023   -24.3215103   46.4572105    -29.8481808   -45.7918587   
570000000     -11.8808098   -117.1908035  19.7481594    108.1379013   -24.2060108   46.5614700    -29.9085102   -45.9009590   
580000000     -11.9388704   -118.4044037  19.6462593    107.5139999   -24.1423206   46.8726692    -30.0281200   -45.4291687   
590000000     -11.9683399   -119.3432999  19.5381699    106.8928986   -24.0255108   47.0023804    -29.9860001   -45.8283386   
600000000     -12.0002699   -120.3255005  19.4339504    106.2800980   -23.9254799   47.4207382    -30.0474892   -45.3326683   
610000000     -12.0074100   -121.4319000  19.3256302    105.6615982   -23.8062401   47.5492210    -30.1791992   -46.2938004   
620000000     -12.0628996   -122.3824997  19.2250309    105.1053009   -23.7480507   47.9871712    -30.2526398   -43.7946701   
630000000     -12.0841198   -123.3764038  19.1196404    104.5080032   -23.6307602   47.9990196    -30.2510300   -45.2622910   
640000000     -12.1224699   -124.3738022  19.0212708    103.9698029   -23.5415993   48.0128899    -30.5180302   -44.8624382   
650000000     -12.1402798   -125.2628021  18.9220200    103.3907013   -23.4400101   48.2936516    -30.3357601   -45.2727203   
660000000     -12.1693401   -126.3032990  18.8205395    102.8186035   -23.3876095   48.4234200    -30.3654709   -45.8096695   
670000000     -12.2086802   -127.1987991  18.7233295    102.2638016   -23.2281895   48.4709702    -30.3220501   -45.1855507   
680000000     -12.2227898   -128.3385925  18.6253796    101.7251968   -23.1465607   48.7350388    -30.6391792   -45.3164291   
690000000     -12.2486801   -129.2427063  18.5291595    101.2031021   -23.0298595   48.8379898    -30.5054092   -43.7736397   
700000000     -12.2793102   -130.1380005  18.4324093    100.6473999   -22.9929504   49.1820908    -30.8474102   -44.7054901   
710000000     -12.3107796   -131.0406036  18.3294201    100.1182022   -22.8932896   48.8968201    -30.7630692   -43.7399101   
720000000     -12.3236704   -131.8609009  18.2347393    99.6103897    -22.7894592   49.0863991    -30.8874092   -43.4786110   
730000000     -12.3394203   -132.8600006  18.1433907    99.1028671    -22.6738396   49.2071915    -31.0375004   -43.7994308   
740000000     -12.3775301   -133.7841949  18.0487003    98.5873566    -22.6382198   49.5027695    -31.0121994   -43.6737709   
750000000     -12.4139605   -134.6215057  17.9566708    98.1571579    -22.5280399   49.3895416    -30.8124809   -43.3632202   
760000000     -12.4301300   -135.5760040  17.8670101    97.6239166    -22.4527092   49.8015594    -30.8428898   -41.2425003   
770000000     -12.4467697   -135.9940948  17.7738094    97.1797104    -22.3424091   49.7054596    -30.7198105   -42.4128189   
780000000     -12.4199800   -136.7490997  17.6893692    96.7079086    -22.2857208   49.7116585    -30.8208904   -42.9036293   
790000000     -12.4421797   -137.6235046  17.5975094    96.2292633    -22.2020092   49.8165703    -30.7888603   -43.3418694   
800000000     -12.4639702   -138.3213959  17.5121803    95.7512589    -22.1282196   50.0099487    -31.1952705   -43.2259293   
810000000     -12.4733601   -139.1710968  17.4222794    95.2786331    -22.0534706   49.8399391    -30.9979992   -42.7980690   
820000000     -12.4935598   -139.8822021  17.3350201    94.8725662    -21.9336891   50.1887703    -31.0451603   -43.5522194   
830000000     -12.4995604   -140.6515961  17.2526493    94.3915787    -21.8583698   50.1393509    -31.0413704   -44.8310890   
840000000     -12.5076303   -141.3513031  17.1714802    93.9384766    -21.7759209   50.1500587    -31.1198196   -44.5218086   
850000000     -12.4914598   -142.1266937  17.0843201    93.4530182    -21.7026806   50.2434196    -31.1830292   -43.7319794   
860000000     -12.5169601   -143.0744019  16.9920101    93.0054016    -21.6390800   50.1318893    -31.3357201   -42.4050293   
870000000     -12.6143198   -143.5505981  16.8993092    92.6899185    -21.5714493   50.5339699    -30.8804798   -38.2596016   
880000000     -12.5708199   -143.9022980  16.8351192    92.2453766    -21.4575005   50.3989296    -30.8168297   -42.9178009   
890000000     -12.5735903   -144.6513062  16.7497692    91.7946930    -21.3785801   50.3759918    -30.8726406   -43.8833694   
900000000     -12.5837202   -145.4098053  16.6682892    91.3567429    -21.3121395   50.6143494    -30.8540001   -43.9621811   
910000000     -12.6126404   -145.8518982  16.5939102    90.9768372    -21.2038403   50.5514107    -30.7792606   -44.1518211   
920000000     -12.6036901   -146.3040009  16.5108509    90.5555573    -21.1278896   50.6982384    -30.8252907   -45.0160789   
930000000     -12.6449099   -147.1735992  16.4391098    90.1403427    -21.0603600   50.4134712    -30.7359791   -46.0388908   
940000000     -12.6351099   -147.8610992  16.3569107    89.7341232    -21.0112896   50.5925407    -30.8822098   -45.0231705   
950000000     -12.6331196   -148.3020935  16.2825394    89.3376465    -20.9231091   50.6470985    -30.7177601   -46.3865891   
960000000     -12.6334400   -148.9765015  16.2080002    88.9047928    -20.8330402   50.4681892    -30.8768196   -46.0139809   
970000000     -12.6538095   -149.6412964  16.1283894    88.5005264    -20.7792492   50.7025795    -30.8578606   -47.5532608   
980000000     -12.6689701   -150.3612976  16.0546093    88.1249008    -20.7019691   50.6011391    -30.8723392   -47.2966003   
990000000     -12.6876402   -150.8504028  15.9794502    87.6978683    -20.6249599   50.6008301    -30.9162693   -47.9455185   
1000000000    -12.6606998   -151.5478058  15.9044600    87.3449478    -20.5335598   50.4221115    -30.9914398   -47.5807190   
1025000000    -12.7025204   -152.9523010  15.7250299    86.3697891    -20.3704205   50.5558205    -30.9316998   -48.0723915   
1050000000    -12.7098198   -154.4205933  15.5485697    85.4463120    -20.1947308   50.5424500    -31.1139908   -48.6157303   
1075000000    -12.7254000   -155.8404999  15.3695803    84.4852371    -20.0386200   50.4533615    -31.2059193   -49.2860985   
1100000000    -12.7402897   -157.2483063  15.1998301    83.5789795    -19.8693409   50.3701401    -31.0797405   -50.3486710   
1125000000    -12.7311697   -158.4548035  15.0307503    82.7035217    -19.7117596   50.5276909    -31.1267204   -50.9436989   
1150000000    -12.7233896   -159.7570038  14.8695297    81.8181763    -19.5287704   50.2177315    -31.1243191   -51.8561096   
1175000000    -12.7364702   -161.0572968  14.7034903    80.9623566    -19.3904095   50.1777306    -30.9123802   -51.3533707   
1200000000    -12.7512903   -162.0686951  14.5454702    80.1320572    -19.2298107   50.0759811    -30.8079891   -56.1641693   
1225000000    -12.7325602   -163.2736053  14.3952703    79.2632370    -19.0785007   49.9816399    -30.7428398   -56.3531418   
1250000000    -12.7292805   -164.5124969  14.2372503    78.4376984    -18.9177094   49.7940903    -30.7598591   -57.8386307   
1275000000    -12.7369003   -165.4066925  14.0873499    77.5789795    -18.7719307   49.5627594    -30.9887600   -60.1934891   
1300000000    -12.7187700   -166.4996948  13.9410400    76.7889709    -18.6225491   49.3527794    -30.8952198   -59.7782402   
1325000000    -12.7097397   -167.7962952  13.7994099    75.9535370    -18.5099297   49.1794014    -30.9707699   -60.9739304   
1350000000    -12.7286196   -168.6855011  13.6563301    75.1938705    -18.3604107   48.9730606    -30.7327995   -62.9203300   
1375000000    -12.7239199   -169.6053009  13.5205698    74.4363327    -18.2106304   48.9060593    -30.8270493   -63.4674492   
1400000000    -12.7013102   -170.6600037  13.3841400    73.6333771    -18.0529499   48.6940002    -30.5175991   -63.4549599   
1425000000    -12.7010498   -171.4203033  13.2505503    72.8462067    -17.9341602   48.4142494    -30.5219402   -64.9883728   
1450000000    -12.7049904   -172.3323975  13.1132202    72.0732880    -17.8191395   48.2855186    -30.3591595   -65.9700699   
1475000000    -12.7295103   -173.0200043  12.9854097    71.3402786    -17.6734200   48.0597916    -30.4371109   -68.8825836   
1500000000    -12.7169199   -173.8686981  12.8589296    70.5658875    -17.5534191   47.8415298    -30.1613903   -68.4737167   
1525000000    -12.7020397   -174.7369995  12.7357101    69.8608627    -17.4188995   47.6651917    -30.0740795   -69.5920868   
1550000000    -12.7325201   -175.6701965  12.6133604    69.1023865    -17.3045807   47.3069305    -29.6991405   -70.4506912   
1575000000    -12.7213697   -176.5458984  12.4912395    68.3669434    -17.1860905   47.0954704    -29.6292305   -71.5331726   
1600000000    -12.7139301   -177.1602936  12.3679304    67.6277466    -17.0538502   46.9379311    -29.7475395   -72.0516434   
1625000000    -12.7273703   -178.2957001  12.2533197    66.9091263    -16.9220200   46.6600418    -29.4031105   -72.3285370   
1650000000    -12.7087297   -178.9868927  12.1347799    66.2039337    -16.8354092   46.3051491    -29.5768394   -72.3742371   
1675000000    -12.7095900   -179.9214020  12.0207005    65.5041580    -16.7049007   46.1714897    -29.1716995   -74.3927383   
1700000000    -12.7180996   179.5863953   11.9030600    64.8354034    -16.5905094   46.0586700    -29.3180408   -72.6260071   
1725000000    -12.7130003   178.8513031   11.8056202    64.1369171    -16.4758091   45.6213799    -28.8217697   -74.9000931   
1750000000    -12.7175303   178.3278961   11.6914597    63.3937302    -16.3881798   45.2784805    -28.8654594   -76.3842773   
1775000000    -12.7508297   177.5184021   11.5838003    62.7327003    -16.2749195   44.9648895    -28.5122890   -76.3034973   
1800000000    -12.7253399   176.9463959   11.4805603    62.0587807    -16.1679802   44.7617989    -28.4505806   -76.6449585   
1825000000    -12.7514601   176.1703033   11.3740702    61.3511810    -16.0501804   44.2879410    -28.3207397   -77.5612793   
1850000000    -12.7818899   175.5798035   11.2734203    60.6898384    -15.9656696   44.1646614    -27.9201298   -78.5583496   
1875000000    -12.7747097   175.0153961   11.1783504    60.0222206    -15.8416300   43.8872795    -27.7732601   -78.0749969   
1900000000    -12.7852802   174.4259949   11.0745201    59.3446503    -15.7435102   43.5205307    -27.7054005   -79.1496124   
1925000000    -12.8441801   173.4530029   10.9781504    58.6399307    -15.6690998   43.2716904    -27.4962997   -79.5797195   
1950000000    -12.8482800   172.9443054   10.8839197    58.0031090    -15.5566101   42.9092102    -27.3722401   -79.7551498   
1975000000    -12.8151598   172.1779022   10.7904902    57.3336105    -15.4477196   42.5021019    -27.1903095   -80.5903931   
2000000000    -12.8178701   171.6201935   10.6984701    56.6453209    -15.3380404   42.4246101    -26.9990902   -81.2360229   
2025000000    -12.8593397   171.2362976   10.6008797    56.0188599    -15.2759304   41.9328003    -26.8814507   -81.7090302   
2050000000    -12.8310699   170.5332031   10.5091105    55.3245583    -15.1744299   41.6109505    -26.6371002   -81.7803879   
2075000000    -12.8722601   169.7505035   10.4160995    54.7347107    -15.0922899   41.2750893    -26.4799404   -80.9265366   
2100000000    -12.8945999   169.3399048   10.3305597    54.0877304    -14.9870596   40.9177704    -26.1698895   -81.6074066   
2125000000    -12.8936901   169.2420044   10.2480202    53.4095993    -14.8964796   40.7061691    -26.0284405   -82.1409531   
2150000000    -12.9313602   168.4703064   10.1637602    52.7564316    -14.7981396   40.2294312    -25.7966309   -82.7680511   
2175000000    -12.9511003   167.9676971   10.0726995    52.0886002    -14.7363100   39.9000816    -25.8930702   -83.5665283   
2200000000    -12.9510803   167.2783051   9.9965334     51.4872704    -14.6299000   39.6589508    -25.5074196   -84.3273163   
2225000000    -12.9991798   166.6661987   9.9160585     50.8524284    -14.5477800   39.2228813    -25.4654198   -84.3947601   
2250000000    -12.9841700   166.0328064   9.8334599     50.1613693    -14.4505396   38.9125214    -25.2213192   -83.9628983   
2275000000    -13.0314598   165.5677032   9.7497826     49.5550499    -14.3826399   38.5756607    -25.0710392   -84.9989395   
2300000000    -13.1003304   165.2306976   9.6648893     49.0067902    -14.3002005   38.3146782    -24.9682503   -83.9392166   
