!Mini-Circuits Laboratory
!S-Parameters, Port extension performed
!Model: PGA-103+
!Run / Lot / Date Code: N/A / BP170-001-01-101EV / 1210
!Fixture: TB-313
!Network Analyzer: PNA-X N5242A - 423 4 ports;  Serial number: 71013
!Date: 5/24/2012 at 5:33:58 PM
!S/N: Unit# 1
!Tested with: Vdd=3.3V at 85C
!
# Hz  S  dB  R  50
!Frequency    S11 dB        S11 Deg       S21 dB        S21 Deg       S12 dB        S12 Deg       S22 dB        S22 Deg       
10000000      -1.3205820    -16.5201893   28.0223503    169.4450073   -34.6475983   48.8436203    -5.4982982    -20.1558304   
20000000      -3.0313740    -26.5482807   27.1475792    165.5361023   -32.2247200   42.0285912    -7.8454552    -36.2356682   
30000000      -4.3678641    -29.7010994   26.5078697    164.1483002   -31.2624702   33.4025612    -9.8823643    -41.5269699   
40000000      -5.2369800    -30.9894199   26.1221695    163.3339996   -30.5286598   29.8040104    -11.3806200   -43.3414917   
50000000      -5.7964368    -31.5520401   25.8886204    162.6123962   -30.6516399   22.8055191    -12.3659697   -43.7735100   
60000000      -6.2396922    -32.8324509   25.6657696    161.9169006   -30.3964691   27.5519791    -13.5022697   -43.7309990   
70000000      -6.5666709    -33.8980217   25.5384808    160.7348022   -29.9059296   25.0286102    -14.2300501   -42.8810616   
80000000      -6.8124871    -35.2100105   25.4154606    159.4645996   -29.8013496   24.1380692    -14.8374996   -42.1299896   
90000000      -7.0207319    -36.7258911   25.3057709    158.1434021   -29.6603603   24.1373596    -15.3676395   -41.6586189   
100000000     -7.1792350    -38.3715897   25.2043800    156.7456970   -29.5559998   24.7292309    -15.7678299   -41.4351692   
110000000     -7.3131981    -40.1136398   25.1026402    155.2588959   -29.3352909   24.5435009    -16.1659698   -41.1708488   
120000000     -7.4402108    -42.0862007   25.0062695    153.8585052   -29.4347591   26.2792892    -16.4389095   -41.1718483   
130000000     -7.5024600    -44.0065613   24.8940792    152.3905945   -28.3931408   24.2745705    -16.9427395   -41.1815681   
140000000     -7.6667991    -46.0033913   24.7872601    150.9057007   -28.9081593   27.1203804    -17.0015106   -41.1008606   
150000000     -7.8271389    -48.1563187   24.6748409    149.4866028   -28.9540691   27.6679897    -17.3531799   -41.4393501   
160000000     -7.9122400    -50.0539589   24.5621204    148.0540009   -28.6833305   27.9527702    -17.5934391   -41.3083992   
170000000     -8.0006838    -52.0336494   24.4467392    146.6723022   -28.6784801   28.4585094    -17.7833996   -41.3791008   
180000000     -8.0951710    -53.9820099   24.3327904    145.2808075   -28.5636406   29.8306007    -17.9339504   -41.5729904   
190000000     -8.1888866    -55.9894714   24.2134399    143.9470062   -28.4265900   30.3749199    -18.1079407   -41.8352394   
200000000     -8.2869272    -57.8400192   24.0877609    142.5832977   -28.3480492   31.1910000    -18.3292599   -42.2539787   
210000000     -8.3989267    -59.7439117   23.9604397    141.3204956   -28.2606792   31.8152008    -18.4981403   -42.1139793   
220000000     -8.4746227    -61.6464691   23.8390198    140.0570984   -28.1415100   32.5697403    -18.6728802   -43.2927589   
230000000     -8.5612822    -63.4736404   23.7168598    138.8153076   -27.9756107   32.6872101    -18.8383007   -43.0577888   
240000000     -8.6801128    -65.2827682   23.5864601    137.5760040   -27.8411293   33.5315399    -19.0096092   -43.4706306   
250000000     -8.7585382    -67.0092087   23.4628906    136.3435059   -27.7476501   34.2040482    -19.1097507   -43.8512192   
260000000     -8.8568497    -68.8554764   23.3330498    135.1968994   -27.6459503   34.6391907    -19.2958508   -43.9851418   
270000000     -8.9469271    -70.4138031   23.2041893    134.0278931   -27.5210800   35.0596390    -19.4400501   -44.3638000   
280000000     -9.0492010    -72.0555801   23.0822201    132.9533997   -27.4492397   36.0793190    -19.5153694   -44.7743301   
290000000     -9.1403046    -73.7687683   22.9545403    131.8087006   -27.2306709   36.7311592    -19.6888008   -45.4132996   
300000000     -9.2022333    -75.4465485   22.8230305    130.7525940   -27.2069092   37.4520607    -19.7223492   -46.0487785   
310000000     -9.3141518    -76.9548492   22.7058296    129.6985016   -27.0166206   37.5989609    -19.8442802   -45.8829613   
320000000     -9.4116659    -78.6658936   22.5745106    128.6667023   -26.9265099   38.1032600    -19.9533691   -46.8289108   
330000000     -9.4964895    -80.2638702   22.4471302    127.6507034   -26.8411007   38.9543495    -20.1105709   -46.8455391   
340000000     -9.6012211    -81.8684616   22.3248901    126.6664963   -26.7043209   39.6127014    -20.2386494   -46.8105507   
350000000     -9.6646233    -83.4131165   22.1952591    125.7138977   -26.5853996   39.6447906    -20.3117504   -46.9771500   
360000000     -9.7615728    -84.9203568   22.0708294    124.7478027   -26.5127106   39.9068413    -20.4494095   -47.3278008   
370000000     -9.8482819    -86.4278793   21.9451504    123.8097000   -26.3662605   40.6363792    -20.5449600   -48.0214500   
380000000     -9.9294147    -87.7545166   21.8175507    122.9198990   -26.2394695   41.0157204    -20.6678505   -47.6854897   
390000000     -10.0199404   -89.4771729   21.6915607    121.9820023   -26.1404400   41.1664314    -20.8009205   -48.3290901   
400000000     -10.0792103   -90.9101181   21.5762806    121.1244965   -26.0306892   41.6950111    -20.9401302   -47.8937111   
410000000     -10.1614799   -92.5423889   21.4456406    120.2596970   -25.8840408   41.9414902    -21.1339607   -48.1917000   
420000000     -10.1929903   -93.8667831   21.3314304    119.4163971   -25.8018208   42.2818604    -21.2095203   -48.5724907   
430000000     -10.2674198   -95.3733902   21.2087498    118.5804977   -25.7068195   42.7705002    -21.3390999   -48.2466393   
440000000     -10.3306599   -97.2072067   21.0913696    117.7135010   -25.5718498   43.0763893    -21.6036701   -48.1810684   
450000000     -10.5167904   -97.9694366   20.9393997    116.9912033   -25.4660892   43.7694588    -21.4790802   -45.5552597   
460000000     -10.4815302   -99.0775528   20.8326092    116.2651978   -25.3430195   43.8244209    -21.5364704   -47.0210419   
470000000     -10.5225801   -100.5159988  20.7145996    115.5243988   -25.2329197   44.1401596    -21.7731991   -47.0723000   
480000000     -10.5654097   -101.6165009  20.5985794    114.7796021   -25.1601009   44.6230011    -21.8408909   -46.6882095   
490000000     -10.6014795   -102.9915009  20.4799309    114.0754013   -25.0007191   44.5977707    -22.0592003   -46.7143898   
500000000     -10.6591101   -104.0709991  20.3675709    113.3613968   -24.9542294   45.0840607    -22.0859604   -46.8559914   
510000000     -10.6927605   -105.2602005  20.2519703    112.6073990   -24.8486099   45.4601898    -22.2644405   -46.7653084   
520000000     -10.7262897   -106.4049988  20.1406708    111.9635010   -24.7269592   45.7364197    -22.3197403   -46.2707596   
530000000     -10.7823601   -107.4424973  20.0306301    111.2919006   -24.6362400   45.6872597    -22.3909798   -46.2924385   
540000000     -10.8334103   -108.5431976  19.9178791    110.6048965   -24.5704803   46.2488098    -22.4906693   -45.8680496   
550000000     -10.8660498   -109.5770035  19.8054295    109.9857025   -24.4128895   46.3679619    -22.6613693   -46.1962013   
560000000     -10.9286604   -110.6470032  19.6995392    109.3363037   -24.3058891   46.4150391    -22.6868801   -46.4357986   
570000000     -10.9639797   -111.6648026  19.5871696    108.7044983   -24.2145195   46.9911308    -22.7793007   -46.7548485   
580000000     -11.0107002   -112.8081970  19.4854603    108.0804977   -24.1222000   47.1210594    -22.9010696   -46.2466393   
590000000     -11.0463200   -113.6924973  19.3790302    107.4776001   -24.0684795   47.1236191    -22.9178391   -47.1238785   
600000000     -11.1112700   -114.5981979  19.2716999    106.8682022   -23.9028797   47.3955688    -22.9180298   -47.1024895   
610000000     -11.1311703   -115.7037964  19.1649704    106.2667999   -23.8473301   47.7155418    -23.0569706   -47.4041786   
620000000     -11.1884604   -116.5521011  19.0618401    105.7165985   -23.7439804   47.7579803    -23.1228809   -46.9763985   
630000000     -11.2391901   -117.5913010  18.9617100    105.1269989   -23.7068005   47.9725304    -23.1323204   -47.8761215   
640000000     -11.2824898   -118.4635010  18.8601093    104.5927963   -23.5630302   48.1635590    -23.2383003   -48.1729889   
650000000     -11.3296700   -119.4810028  18.7623997    104.0204010   -23.5195808   48.4800186    -23.2540894   -48.8959007   
660000000     -11.3616695   -120.4261017  18.6610508    103.4453964   -23.3696594   48.6101608    -23.2707806   -49.1839409   
670000000     -11.4327898   -121.5054016  18.5622692    102.8851013   -23.2410393   48.7914886    -23.3084908   -49.5227089   
680000000     -11.4515800   -122.5234985  18.4629498    102.3348999   -23.1875591   49.0137482    -23.4853897   -50.0993385   
690000000     -11.4830303   -123.5822983  18.3672199    101.8206024   -23.1416798   48.7169495    -23.5279503   -49.6289482   
700000000     -11.5477400   -124.4002991  18.2705898    101.2799988   -23.0316505   49.1896286    -23.5859699   -50.4822617   
710000000     -11.5590296   -125.4881973  18.1710396    100.7378998   -22.9203300   49.2426682    -23.6199894   -50.7995110   
720000000     -11.6238003   -126.2322998  18.0710907    100.2453995   -22.8575993   49.4425697    -23.6724701   -50.3346786   
730000000     -11.6384497   -127.2350006  17.9804096    99.7347870    -22.7627392   49.4151802    -23.8197994   -51.0753403   
740000000     -11.7050505   -128.3132935  17.8843403    99.2071991    -22.6981297   49.5858498    -23.8147907   -51.3792000   
750000000     -11.7311401   -128.9882965  17.7879696    98.7978516    -22.5705109   49.7534485    -23.6866703   -51.2201691   
760000000     -11.7300596   -129.9627075  17.7036896    98.2690887    -22.4839401   49.8981094    -23.7375603   -51.0341110   
770000000     -11.7649002   -130.5848999  17.6039791    97.8190765    -22.4370308   49.9731216    -23.7268696   -50.8975296   
780000000     -11.7495699   -131.3535004  17.5192299    97.3621597    -22.3355694   50.1620483    -23.7846699   -51.3308983   
790000000     -11.7742796   -132.3726044  17.4251804    96.8644638    -22.2794704   50.1085014    -23.8729000   -51.2152405   
800000000     -11.8151903   -132.8842010  17.3324699    96.4259796    -22.1433506   50.2982597    -23.8322105   -51.1420403   
810000000     -11.8094397   -133.4918060  17.2444992    95.9943237    -22.1070194   50.3626900    -23.8237495   -51.1945305   
820000000     -11.8247700   -134.1513977  17.1594601    95.5797272    -21.9976292   50.6539917    -23.8927898   -51.4125595   
830000000     -11.8326998   -134.8984070  17.0767193    95.0956116    -21.9178295   50.3676796    -23.9246407   -51.6562195   
840000000     -11.8437996   -135.5569000  16.9947891    94.6598969    -21.8658504   50.4919510    -23.9455891   -51.4610786   
850000000     -11.8155098   -136.5133057  16.9044895    94.1284409    -21.7852306   50.5302010    -24.0168705   -50.6128616   
860000000     -11.9154797   -136.9528046  16.8028393    93.7935867    -21.7332497   50.6307411    -23.8439903   -49.0826302   
870000000     -11.9483805   -136.9822998  16.7296505    93.4803085    -21.6178303   50.9798584    -23.6794491   -49.7725105   
880000000     -11.9432402   -137.4588013  16.6547108    93.0376129    -21.5541306   50.8806992    -23.6915092   -50.0415001   
890000000     -11.9483204   -138.0942993  16.5695305    92.6016922    -21.4748592   50.8699417    -23.7001495   -50.1979218   
900000000     -11.9694405   -138.7109070  16.4890709    92.1905289    -21.3756599   50.9110298    -23.7238007   -49.8907013   
910000000     -11.9920702   -139.1333008  16.4147797    91.7992172    -21.2959194   51.0750008    -23.7192097   -49.9617805   
920000000     -11.9993601   -139.5576935  16.3319798    91.3990097    -21.2490005   51.0484886    -23.7023697   -49.8064499   
930000000     -12.0609398   -140.2696991  16.2606106    90.9746628    -21.1635895   51.0693398    -23.6604195   -50.0575981   
940000000     -12.0712900   -140.8470001  16.1797104    90.5790710    -21.0739193   51.3575592    -23.6763802   -49.6000290   
950000000     -12.0848999   -141.3141022  16.1028099    90.1923065    -20.9990005   51.2694206    -23.6459999   -49.7621307   
960000000     -12.1043997   -141.9190063  16.0293198    89.7772598    -20.9363194   51.1011086    -23.7224598   -49.8716698   
970000000     -12.1357002   -142.4851990  15.9521904    89.3843384    -20.8745499   51.1752014    -23.7131310   -50.2291794   
980000000     -12.1787500   -143.3106995  15.8776598    89.0027237    -20.7870007   51.1973114    -23.7177105   -50.3185883   
990000000     -12.1948299   -143.8011017  15.8030396    88.5891190    -20.7310696   51.2538910    -23.7584896   -50.3189087   
1000000000    -12.1824503   -144.5186005  15.7280798    88.2443237    -20.6229000   51.2070084    -23.8157406   -50.1136589   
1025000000    -12.2354202   -146.0359955  15.5500498    87.2898331    -20.4734402   51.4591103    -23.8802109   -50.8398209   
1050000000    -12.2607498   -147.6266022  15.3714800    86.3667908    -20.3081608   51.3562698    -24.0888901   -51.1781387   
1075000000    -12.2726097   -149.3840027  15.1893797    85.4093323    -20.1682091   51.1384087    -24.2597694   -50.8960495   
1100000000    -12.2855301   -150.5997009  15.0183802    84.5601883    -20.0122299   51.1954613    -24.3193607   -52.8007202   
1125000000    -12.2678204   -151.9163971  14.8448601    83.6881332    -19.8101406   51.0738602    -24.4433403   -52.5130692   
1150000000    -12.2779598   -152.9210052  14.6844797    82.8580170    -19.6410694   51.3115807    -24.4239902   -53.4785004   
1175000000    -12.2756395   -154.1838989  14.5233402    82.0096207    -19.4914093   51.0138702    -24.4012108   -54.5434914   
1200000000    -12.2967901   -155.2454987  14.3623400    81.1886368    -19.3209705   50.9070511    -24.3892708   -55.4286804   
1225000000    -12.3335199   -156.1334076  14.2094297    80.3692627    -19.1881695   50.8711586    -24.2626209   -56.0206604   
1250000000    -12.3817301   -157.3423004  14.0522499    79.5641098    -19.0351295   50.8628807    -24.1627293   -57.0275192   
1275000000    -12.4400702   -158.2796936  13.9023199    78.7347031    -18.8906193   50.5902290    -24.1296902   -58.0800591   
1300000000    -12.4583797   -159.3941956  13.7571001    77.9551926    -18.7416306   50.7139893    -24.0194206   -58.2987289   
1325000000    -12.4806700   -160.7962036  13.6128902    77.1377716    -18.6110191   50.3554611    -24.0365505   -58.8611717   
1350000000    -12.4997501   -161.7897949  13.4701900    76.3869171    -18.4871807   50.3115807    -23.9335098   -59.2046089   
1375000000    -12.5155602   -162.7543030  13.3320198    75.6433792    -18.3308392   50.1111717    -24.0337601   -59.4547386   
1400000000    -12.4800797   -163.7886963  13.1931496    74.8842163    -18.2387009   49.9187012    -23.9824104   -59.1484909   
1425000000    -12.4563503   -164.6295013  13.0576000    74.1195068    -18.0775204   49.8417511    -24.0461407   -59.6244698   
1450000000    -12.4297600   -165.3464050  12.9200697    73.3834534    -17.9437294   49.6305504    -24.0956993   -59.6085205   
1475000000    -12.4431200   -165.8224030  12.7919998    72.6779327    -17.8329296   49.4085007    -24.2051697   -60.1893196   
1500000000    -12.4233599   -166.5664063  12.6632795    71.9359131    -17.7101498   49.3654594    -24.1860008   -59.7178688   
1525000000    -12.4360199   -167.1410980  12.5398798    71.2752838    -17.5880909   49.0832787    -24.1741009   -59.7658691   
1550000000    -12.4601898   -168.0438995  12.4224005    70.5336075    -17.4501400   48.9313393    -23.9811897   -61.2069511   
1575000000    -12.4801598   -168.8612061  12.2987499    69.8220291    -17.3277893   48.6315804    -23.9550209   -61.7190208   
1600000000    -12.5200701   -169.5364990  12.1762199    69.1111832    -17.2091103   48.4842186    -24.0067997   -62.6598396   
1625000000    -12.5626497   -170.7917938  12.0612698    68.3977890    -17.1054592   48.1978188    -23.8611393   -63.7786903   
1650000000    -12.5874300   -171.6327057  11.9424000    67.6997299    -16.9602909   47.9635201    -23.9299698   -65.0576630   
1675000000    -12.5979996   -172.8423004  11.8277903    67.0212097    -16.8617802   47.7004089    -23.7192097   -66.1902695   
1700000000    -12.6041002   -173.4340973  11.7103596    66.3750916    -16.7643108   47.6300697    -23.7744503   -66.2081223   
1725000000    -12.6036596   -174.4485931  11.6071100    65.6897278    -16.6481609   47.3450317    -23.5476398   -67.7715912   
1750000000    -12.5928602   -175.0240936  11.4930401    64.9817963    -16.5370998   47.1512489    -23.6088009   -68.3274307   
1775000000    -12.5999098   -175.6609955  11.3847904    64.3495102    -16.4234409   46.9449883    -23.3561306   -68.3401031   
1800000000    -12.5715704   -176.0446014  11.2779303    63.7214584    -16.3273392   46.5787582    -23.3175907   -68.0858536   
1825000000    -12.6054296   -176.5319977  11.1738005    63.0473785    -16.2229805   46.3495216    -23.1788292   -68.1870117   
1850000000    -12.6534500   -176.8255005  11.0732803    62.4332199    -16.1065292   45.9826698    -22.9896908   -68.3015137   
1875000000    -12.6618900   -177.1838074  10.9784803    61.7609291    -16.0131397   45.9811707    -22.8922691   -68.0118790   
1900000000    -12.7177801   -177.7084045  10.8760595    61.1367912    -15.9135599   45.5758400    -22.8268108   -68.5178680   
1925000000    -12.8080397   -178.5915070  10.7814798    60.4530296    -15.8119898   45.3292809    -22.6575298   -69.0419922   
1950000000    -12.8189497   -179.3760071  10.6881504    59.7959785    -15.7108603   45.1181793    -22.6361408   -69.9210129   
1975000000    -12.8370304   179.6497955   10.5907698    59.1656303    -15.6317596   44.5963593    -22.6378994   -70.6005096   
2000000000    -12.8259201   178.8218994   10.4984303    58.4976387    -15.5239096   44.4036789    -22.6152191   -71.3523865   
2025000000    -12.8476295   177.9187927   10.4001303    57.8600311    -15.4350500   44.0765686    -22.6344204   -72.2215500   
2050000000    -12.7987404   177.1782074   10.3057003    57.2122192    -15.3455896   43.8894310    -22.5456696   -72.7623978   
2075000000    -12.7795296   176.1566010   10.2100897    56.6217918    -15.2748404   43.5069695    -22.6001892   -72.9126968   
2100000000    -12.7775898   175.7678986   10.1234999    55.9944992    -15.1656199   43.2129288    -22.4276600   -73.5382767   
2125000000    -12.7743797   175.7480011   10.0383902    55.3773193    -15.0676498   43.0199890    -22.3585300   -74.0520477   
2150000000    -12.7935400   175.1763000   9.9500208     54.7488708    -14.9950304   42.7376289    -22.2661209   -74.7185669   
2175000000    -12.8239603   174.8397064   9.8575249     54.1251183    -14.9080296   42.3027306    -22.3310795   -74.8685226   
2200000000    -12.8538303   174.3798065   9.7835884     53.5410500    -14.8167896   41.9884682    -21.9953003   -75.9103699   
2225000000    -12.9271498   173.8556976   9.7026262     52.9341011    -14.7355299   41.7273483    -21.8825207   -76.0214462   
2250000000    -12.9345999   173.2763977   9.6218100     52.2593117    -14.6353703   41.4108582    -21.6618404   -76.3057022   
2275000000    -12.9989901   172.7147064   9.5361671     51.6735115    -14.5726004   41.1166000    -21.6094704   -76.6836472   
2300000000    -13.1307898   172.1667938   9.4467955     51.1792412    -14.4867201   40.9582901    -21.5436497   -75.6853104   
