!Mini-Circuits Laboratory
!S-Parameters, Port extension performed
!Model: PGA-103+
!Run / Lot / Date Code: N/A / BP170-001-01-101EV / 1210
!Fixture: TB-313
!Network Analyzer: PNA-X N5242A - 423 4 ports;  Serial number: 71013
!Date: 5/24/2012 at 5:09:38 PM
!S/N: Unit# 1
!Tested with: Vdd=3.3V at 25C
!
# Hz  S  dB  R  50
!Frequency    S11 dB        S11 Deg       S21 dB        S21 Deg       S12 dB        S12 Deg       S22 dB        S22 Deg       
10000000      -1.3760819    -18.0589008   28.8616199    168.4660034   -34.8010902   52.7744217    -5.9824810    -23.2367897   
20000000      -3.2023380    -30.3502808   27.8746605    163.8522034   -32.4186516   43.8641396    -8.3155746    -42.9364319   
30000000      -4.7225308    -35.0830002   27.1245499    162.2230072   -31.1455193   33.2057304    -10.5510101   -51.5653305   
40000000      -5.8182402    -36.7787399   26.6528893    161.4407043   -30.3463993   28.6157093    -12.4202404   -56.0646896   
50000000      -6.4622450    -37.4038086   26.3668900    160.7993927   -30.7511997   23.9847107    -13.7000999   -58.0588989   
60000000      -7.0938148    -38.9859695   26.0995293    160.2268066   -30.2344894   26.9394207    -15.2315903   -60.1237488   
70000000      -7.5231409    -39.7279091   25.9439297    159.1573029   -29.8541393   24.0905209    -16.3233891   -60.2375793   
80000000      -7.8581762    -40.8683586   25.7986298    157.9947968   -29.7934608   24.2904892    -17.3100891   -60.0253716   
90000000      -8.1100893    -42.2135010   25.6723900    156.7673035   -29.6724300   24.0056400    -18.1864109   -59.7946205   
100000000     -8.3094149    -43.6912994   25.5570297    155.4470978   -29.5932503   23.9335308    -18.8896599   -59.7474709   
110000000     -8.4705772    -45.2170906   25.4450302    154.0337982   -29.5653305   23.6182098    -19.5715008   -58.5358200   
120000000     -8.6219273    -47.0186882   25.3417892    152.6743927   -29.2454205   25.2178593    -20.0921192   -58.3523598   
130000000     -8.7680950    -49.0735397   25.2186604    151.2642059   -29.3505192   27.3126507    -20.6218109   -57.9740295   
140000000     -8.8723001    -50.6949387   25.1068592    149.8359985   -29.2026291   25.5379601    -21.0585995   -57.6565018   
150000000     -9.0739212    -52.8026085   24.9904594    148.4774933   -28.9657497   26.7499809    -21.7050896   -57.2194595   
160000000     -9.1741095    -54.4935303   24.8711491    147.0749969   -28.8836098   26.8376999    -22.0870209   -56.1791191   
170000000     -9.2754593    -56.2844887   24.7545300    145.7386932   -28.6808395   28.1190395    -22.3766308   -54.9106789   
180000000     -9.3797426    -58.1769981   24.6377201    144.3565979   -28.6076698   29.0879898    -22.7756691   -54.8450584   
190000000     -9.4776287    -60.1737289   24.5170898    143.0525970   -28.5612907   29.4974709    -23.1471291   -53.9636497   
200000000     -9.5896864    -62.1302795   24.3876896    141.7167969   -28.4836903   30.1404400    -23.5572109   -53.5447502   
210000000     -9.6988955    -64.0771179   24.2606392    140.4678955   -28.3230896   31.2549305    -23.8420105   -51.8844109   
220000000     -9.7915487    -66.0935974   24.1364498    139.2055054   -28.3025799   31.6990891    -24.1803799   -52.7646103   
230000000     -9.8728685    -67.8928833   24.0109901    137.9974060   -28.1197701   31.6934605    -24.4927692   -51.4923096   
240000000     -10.0031605   -69.7182465   23.8796597    136.7711029   -28.0938797   32.6857986    -24.8251591   -50.4823990   
250000000     -10.0956202   -71.5373764   23.7563801    135.5431061   -28.0193996   33.0627594    -25.0910892   -50.0208206   
260000000     -10.2025499   -73.4921417   23.6245308    134.3948975   -27.8848896   33.6847305    -25.4810505   -48.9767609   
270000000     -10.2894402   -75.1596527   23.4943199    133.2440033   -27.7305202   34.3663712    -25.7781296   -48.2528114   
280000000     -10.3742905   -77.0010529   23.3674202    132.1634979   -27.6055393   35.2042198    -25.9011993   -47.5120697   
290000000     -10.4779902   -78.7163467   23.2388401    131.0267944   -27.5188007   35.7750816    -26.2582092   -47.1277885   
300000000     -10.5182304   -80.4527817   23.1048908    129.9696960   -27.4480705   36.6730614    -26.2726707   -47.0071487   
310000000     -10.6193399   -82.1216965   22.9862499    128.9306946   -27.2522106   37.1679192    -26.5446396   -45.6096191   
320000000     -10.6955700   -83.9673462   22.8530998    127.9054031   -27.1125793   37.7883301    -26.6616192   -45.5769005   
330000000     -10.7803297   -85.4366302   22.7236404    126.9037018   -27.0343609   38.0492401    -26.9012394   -44.0548096   
340000000     -10.8701200   -87.0991669   22.5991096    125.9237976   -26.8556709   38.6241417    -27.0719509   -42.7921982   
350000000     -10.9222603   -88.6489487   22.4664993    124.9711990   -26.7826996   38.9972000    -27.1778908   -41.6757011   
360000000     -11.0167103   -90.2282791   22.3402901    124.0193024   -26.6274109   39.4208298    -27.3198891   -41.0413704   
370000000     -11.0877199   -91.7976608   22.2172203    123.1004028   -26.5279408   40.0375099    -27.4572105   -41.0831413   
380000000     -11.1520996   -93.1155319   22.0882607    122.2134018   -26.4213696   40.4957886    -27.5117702   -39.3351402   
390000000     -11.2277699   -94.8153000   21.9613400    121.2901993   -26.3416595   40.7386284    -27.7467899   -39.3852310   
400000000     -11.3010397   -96.1172409   21.8433094    120.4560013   -26.2100506   41.3491592    -27.8908195   -36.8182487   
410000000     -11.3698997   -97.8214874   21.7127895    119.5913010   -26.1289806   41.4069786    -28.1704903   -37.1887703   
420000000     -11.4009304   -99.0729065   21.5968494    118.7742996   -25.9671307   41.8823509    -28.1320496   -36.0625305   
430000000     -11.4750900   -100.4671021  21.4731407    117.9531021   -25.8500404   41.9008408    -28.2206306   -35.6512413   
440000000     -11.5249300   -101.8961029  21.3535595    117.1532974   -25.7777596   43.3139381    -28.2098808   -34.6941299   
450000000     -11.5816298   -103.2007980  21.2370396    116.3792038   -25.6800499   43.1160393    -28.2422409   -33.2910004   
460000000     -11.6253405   -104.6548004  21.1147308    115.5863037   -25.5168991   43.7162514    -28.3163795   -32.6318512   
470000000     -11.6856298   -106.0350037  20.9940701    114.8394012   -25.4977493   43.7451286    -28.5142193   -31.3876400   
480000000     -11.7840595   -107.1412964  20.8679695    114.0848999   -25.2959995   44.3491516    -28.3004894   -29.6635609   
490000000     -11.8245602   -108.2848969  20.7504406    113.4076004   -25.1903000   44.7432594    -28.5226803   -29.2704906   
500000000     -11.9134798   -109.4492035  20.6320896    112.6992035   -25.1238403   44.8275909    -28.3865700   -29.1979809   
510000000     -11.9601402   -110.5351028  20.5186596    111.9988022   -25.0532608   45.2187195    -28.4813004   -28.3694191   
520000000     -11.9621696   -111.6220016  20.4110508    111.3386993   -24.8924007   45.7823410    -28.3683395   -27.6016808   
530000000     -12.0152197   -112.9406967  20.3042793    110.6231995   -24.7682991   45.9790306    -28.3057003   -26.8547897   
540000000     -12.0643301   -113.8914032  20.1917400    109.9600983   -24.7151794   46.1760788    -28.4031200   -27.1563492   
550000000     -12.0902004   -115.0382004  20.0795708    109.3314972   -24.5727806   46.1605186    -28.5002995   -26.5338707   
560000000     -12.1561003   -116.3265991  19.9741402    108.6692963   -24.5252495   46.4829597    -28.5024796   -26.6531601   
570000000     -12.1833096   -117.3247986  19.8618507    108.0382004   -24.4053402   46.7159309    -28.5762806   -26.7379303   
580000000     -12.2146301   -118.4854965  19.7592106    107.4097977   -24.3014698   46.8968582    -28.6317196   -25.8455696   
590000000     -12.2278900   -119.4802017  19.6537304    106.7953033   -24.1999893   47.3431702    -28.6094799   -26.6642208   
600000000     -12.2789898   -120.3462982  19.5478802    106.1883011   -24.1099892   47.1758308    -28.5847893   -26.6818104   
610000000     -12.2911100   -121.5132980  19.4391308    105.5774994   -24.0016594   47.4723892    -28.6129608   -26.1175900   
620000000     -12.3368902   -122.5100021  19.3375797    105.0241013   -23.9099503   47.7770309    -28.5657597   -25.0188808   
630000000     -12.3700399   -123.4881973  19.2336102    104.4263992   -23.8520203   47.9085999    -28.5642395   -25.9176903   
640000000     -12.4059896   -124.3781967  19.1332703    103.8923035   -23.7424698   48.0588913    -28.7972202   -25.8666191   
650000000     -12.4114504   -125.3042984  19.0345306    103.3088989   -23.5923309   48.5368805    -28.5479507   -25.5658207   
660000000     -12.4540396   -126.4488983  18.9328709    102.7301025   -23.5338802   48.1948891    -28.5913696   -25.7803192   
670000000     -12.4852104   -127.3385010  18.8352108    102.1867981   -23.4514294   48.5520210    -28.5880394   -26.6711197   
680000000     -12.4997702   -128.3697968  18.7349396    101.6536026   -23.2933693   48.6940994    -28.6733894   -26.2418308   
690000000     -12.5144997   -129.3067932  18.6391392    101.1281967   -23.2355900   48.7841187    -28.6110306   -24.7877197   
700000000     -12.5577497   -130.2019958  18.5439701    100.5830994   -23.1333103   48.8771706    -28.6949692   -25.6290798   
710000000     -12.5780802   -131.2274933  18.4416904    100.0445023   -23.0381794   49.0009499    -28.7216492   -25.0980492   
720000000     -12.6051197   -131.8621063  18.3457699    99.5586014    -22.9556599   49.2623482    -28.6902809   -24.4001808   
730000000     -12.6205597   -132.7424011  18.2560692    99.0420609    -22.9027805   49.3519287    -28.8878708   -24.5641994   
740000000     -12.6475296   -133.8132019  18.1611805    98.5236435    -22.8022995   49.3566589    -28.8179207   -24.7109108   
750000000     -12.6821899   -134.6690063  18.0657597    98.0828323    -22.6914406   49.8607292    -28.6572094   -24.1494904   
760000000     -12.6979904   -135.5343018  17.9780293    97.5633469    -22.6203499   49.7023697    -28.6717701   -23.8160496   
770000000     -12.7232504   -135.9689026  17.8820992    97.1120071    -22.5542507   50.0393105    -28.4219894   -23.4671402   
780000000     -12.7001305   -136.7442017  17.7978306    96.6533203    -22.4608707   50.0746193    -28.5069294   -24.8719101   
790000000     -12.7115698   -137.5982056  17.7067909    96.1758575    -22.3512993   50.0277596    -28.6359997   -25.3419704   
800000000     -12.7474804   -138.3018036  17.6219101    95.7062988    -22.2925491   50.0675583    -28.6408195   -24.3808098   
810000000     -12.7409096   -139.0626984  17.5322399    95.2253876    -22.2020798   50.0575600    -28.6137409   -24.4460392   
820000000     -12.7768803   -139.8007965  17.4429398    94.8313980    -22.0964909   50.1397705    -28.6053295   -24.8848991   
830000000     -12.7824097   -140.6334991  17.3620090    94.3361588    -22.0070400   50.3105698    -28.6387005   -25.8135300   
840000000     -12.7874098   -141.3721924  17.2793007    93.8983917    -21.9439201   50.3180389    -28.6516705   -25.9422607   
850000000     -12.7598801   -142.1233063  17.1947708    93.4103699    -21.8911209   50.4112892    -28.6993999   -26.1875095   
860000000     -12.7609100   -142.9058990  17.1057091    92.9650726    -21.7581501   50.3124008    -28.7474709   -25.1334896   
870000000     -12.8882198   -143.6772003  17.0044594    92.6161118    -21.7938995   50.2722893    -28.3016205   -21.6781998   
880000000     -12.8453102   -143.8108063  16.9446392    92.2056580    -21.6184998   50.6935196    -28.1699200   -25.4986591   
890000000     -12.8366604   -144.5892944  16.8587303    91.7488632    -21.5693493   50.8408089    -28.4057903   -26.3094101   
900000000     -12.8592396   -145.4779968  16.7763100    91.3098373    -21.4861908   50.4602394    -28.5346508   -25.7060204   
910000000     -12.9090500   -146.0516968  16.6954594    90.9262009    -21.4542408   50.9902802    -27.9230595   -23.1962795   
920000000     -12.8887196   -146.3170929  16.6166496    90.5393829    -21.3051491   50.9518204    -28.0488091   -27.2862492   
930000000     -12.9337702   -147.0809937  16.5459709    90.1116333    -21.2241497   50.7603111    -28.1237297   -28.8575096   
940000000     -12.9145603   -147.7277985  16.4664097    89.7076111    -21.1685104   50.6761093    -28.2303200   -28.2945099   
950000000     -12.9091196   -148.2745972  16.3896599    89.2992401    -21.0659695   50.5938911    -28.2018509   -28.6311493   
960000000     -12.9113503   -148.9503021  16.3146992    88.8737488    -21.0247002   50.7505608    -28.3440208   -28.6486092   
970000000     -12.9418802   -149.6109924  16.2351799    88.4675217    -20.9481201   50.8145409    -28.2586403   -29.3759499   
980000000     -12.9437799   -150.3316040  16.1626606    88.0916824    -20.8611603   50.7574997    -28.3323002   -29.8089104   
990000000     -12.9565802   -150.7754974  16.0867004    87.6844711    -20.7915592   50.8397102    -28.2742405   -29.7683792   
1000000000    -12.9506502   -151.4367981  16.0102406    87.3285599    -20.7241192   50.7628784    -28.4178905   -29.5522404   
1025000000    -12.9914198   -152.9053040  15.8303204    86.3501587    -20.5579109   50.6577492    -28.2937698   -30.7144394   
1050000000    -12.9832001   -154.2485046  15.6559696    85.4374084    -20.3729000   50.6576691    -28.3946209   -31.1518002   
1075000000    -12.9789200   -155.7747040  15.4766703    84.4654236    -20.2036896   50.6514091    -28.4633198   -31.5236301   
1100000000    -13.0035601   -157.0695953  15.3078299    83.5588379    -20.0279198   50.5288506    -28.4367695   -32.8765717   
1125000000    -12.9996996   -158.3092041  15.1359100    82.6993408    -19.8843498   50.5839005    -28.4077606   -33.4032593   
1150000000    -12.9798002   -159.6972046  14.9778204    81.7786713    -19.7071896   50.4606285    -28.4362392   -33.8318481   
1175000000    -13.0746002   -160.8834076  14.7981901    81.0115967    -19.5573692   50.5095482    -28.1863194   -34.9323997   
1200000000    -13.0153704   -161.8101959  14.6524096    80.1471024    -19.3862591   50.1811218    -28.1947403   -37.9126701   
1225000000    -13.0080404   -163.0832977  14.5002899    79.2767563    -19.2391701   50.1054306    -28.1781693   -39.1466713   
1250000000    -12.9960203   -164.2377014  14.3414602    78.4558029    -19.0935192   50.0086708    -28.1940804   -39.6822510   
1275000000    -13.0171604   -165.2348938  14.1911497    77.5971680    -18.9386101   49.8583908    -28.4060192   -40.8079605   
1300000000    -13.0044804   -166.2272949  14.0457602    76.8082962    -18.7932701   49.6524696    -28.2483006   -41.6913681   
1325000000    -12.9797697   -167.5933075  13.9021797    75.9852676    -18.6618500   49.4627190    -28.3545094   -42.4956284   
1350000000    -12.9871101   -168.4147949  13.7618599    75.2177811    -18.5151100   49.3230896    -28.1737804   -43.7606010   
1375000000    -12.9967899   -169.3280945  13.6252403    74.4532928    -18.3617706   49.1469307    -28.2683792   -44.4435081   
1400000000    -12.9811401   -170.3609924  13.4885502    73.6642227    -18.2155304   48.9962196    -28.0642700   -45.5445099   
1425000000    -12.9799004   -171.1616058  13.3536596    72.8896332    -18.1071796   48.7125015    -28.0716209   -46.6030006   
1450000000    -12.9621801   -172.0670929  13.2174597    72.1095200    -17.9617596   48.4773788    -27.9689503   -47.6771393   
1475000000    -12.9975700   -172.6873016  13.0882597    71.3809586    -17.8441200   48.4389687    -28.0024891   -49.7679596   
1500000000    -12.9758902   -173.5108948  12.9614496    70.5942764    -17.7058296   48.2275696    -27.8194695   -50.7628593   
1525000000    -12.9825001   -174.2837982  12.8396702    69.9056015    -17.5819302   47.9205017    -27.7516308   -51.3142395   
1550000000    -12.9955397   -175.3957062  12.7168703    69.1458282    -17.4640503   47.6171608    -27.4596596   -53.0370789   
1575000000    -12.9954004   -176.1448975  12.5931196    68.4159164    -17.3332405   47.2100105    -27.4742393   -54.1489792   
1600000000    -12.9793596   -176.8209076  12.4709902    67.6741562    -17.1949902   47.1281090    -27.4817791   -54.3191299   
1625000000    -12.9897003   -177.8135071  12.3554602    66.9647522    -17.0980492   46.8462410    -27.2802505   -55.2454987   
1650000000    -12.9812098   -178.5177002  12.2349300    66.2703323    -16.9699306   46.6530800    -27.2951908   -55.9302292   
1675000000    -12.9657297   -179.5229950  12.1243601    65.5579834    -16.8569698   46.4035988    -27.0967197   -56.9193611   
1700000000    -12.9714899   -179.9544983  12.0059004    64.8843765    -16.7690697   46.1153183    -27.0920200   -56.1186600   
1725000000    -12.9733601   179.1838989   11.9066095    64.1965103    -16.6358204   45.8782387    -26.8264103   -58.7529793   
1750000000    -12.9877300   178.7407990   11.7928600    63.4618607    -16.5432796   45.5506516    -26.8523197   -59.7383003   
1775000000    -13.0044899   177.9570007   11.6856403    62.7934685    -16.4145298   45.4132195    -26.5466900   -60.2810898   
1800000000    -12.9794703   177.4223022   11.5826597    62.1259918    -16.3041897   44.9894791    -26.5371208   -60.9077911   
1825000000    -13.0077496   176.6846008   11.4758997    61.4307098    -16.2006493   44.6581001    -26.4051800   -62.1797295   
1850000000    -13.0273104   176.1428986   11.3736095    60.7590904    -16.1268101   44.3243103    -26.2038193   -63.3332596   
1875000000    -13.0365896   175.5874939   11.2794504    60.0958290    -16.0174809   44.0544701    -25.9940300   -63.1467018   
1900000000    -13.0599604   174.9739075   11.1756697    59.4313698    -15.9033499   43.7920799    -25.9312706   -63.9951897   
1925000000    -13.1147804   173.9954987   11.0801401    58.7113190    -15.7945299   43.6814499    -25.7806206   -65.1071167   
1950000000    -13.0870199   173.4978027   10.9857101    58.0689087    -15.7089901   43.4025002    -25.6611500   -65.9250565   
1975000000    -13.0736799   172.7496033   10.8909502    57.4144096    -15.5824699   42.9215889    -25.5911903   -66.3961868   
2000000000    -13.0791998   172.2214966   10.7969799    56.7381783    -15.5145102   42.5361519    -25.4222603   -67.5353088   
2025000000    -13.1073999   171.7496033   10.7025003    56.1025200    -15.4363403   42.3654900    -25.2561893   -67.9484329   
2050000000    -13.0905600   171.0986023   10.6076803    55.4191818    -15.3173800   41.8969116    -25.0635395   -68.8342209   
2075000000    -13.1182098   170.4678955   10.5172997    54.8261909    -15.2342997   41.5937881    -24.8958302   -68.3678436   
2100000000    -13.1520100   169.9945068   10.4288902    54.1862297    -15.1417799   41.3480301    -24.6471004   -69.2042694   
2125000000    -13.1355000   169.8838959   10.3479605    53.5146713    -15.0300703   41.0226212    -24.4683895   -70.0915833   
2150000000    -13.1675997   169.1246033   10.2628603    52.8512611    -14.9516296   40.5646591    -24.3891201   -70.9977493   
2175000000    -13.2017002   168.5498047   10.1721296    52.1908607    -14.8636103   40.2434883    -24.4431801   -71.7925110   
2200000000    -13.2178497   167.9945984   10.0936003    51.5893097    -14.7791100   40.1049118    -24.0690308   -72.2528534   
2225000000    -13.2523499   167.3726959   10.0126305    50.9577789    -14.6765003   39.5314713    -24.0853806   -73.0657806   
2250000000    -13.2291098   166.8466034   9.9316835     50.2646103    -14.6129398   39.3175507    -23.7997799   -72.8211365   
2275000000    -13.2656498   166.2891998   9.8469629     49.6515388    -14.5207100   38.8417587    -23.7414494   -73.9262466   
2300000000    -13.3532400   165.8977966   9.7620745     49.0967293    -14.4605799   38.6382790    -23.5884399   -73.2183533   
