!Mini-Circuits Laboratory
!S-Parameters, Port extension performed
!Model: PGA-103+
!Run / Lot / Date Code: N/A / BP170-001-01-101EV / 1210
!Fixture: TB-313
!Network Analyzer: PNA-X N5242A - 423 4 ports;  Serial number: 71013
!Date: 5/24/2012 at 5:20:48 PM
!S/N: Unit# 1
!Tested with: Vdd=3.3V at -45C
!
# Hz  S  dB  R  50
!Frequency    S11 dB        S11 Deg       S21 dB        S21 Deg       S12 dB        S12 Deg       S22 dB        S22 Deg       
10000000      -1.3490050    -22.5108700   29.3571396    168.4860992   -38.6029205   62.8002586    -5.9807620    -30.0262604   
20000000      -3.2508039    -33.2273483   28.3473492    162.5812988   -32.1582909   45.2654495    -8.1995630    -46.4321289   
30000000      -4.9188972    -38.9664993   27.5073795    160.6681976   -31.1121292   36.6202011    -10.4435396   -57.4842300   
40000000      -6.1787348    -41.8049507   26.9594002    159.8627014   -30.4087105   29.7891502    -12.4581604   -64.5634384   
50000000      -7.0073690    -43.9576797   26.6166592    159.3184967   -29.5707607   30.0509396    -14.0747299   -69.1891632   
60000000      -7.8434701    -44.1372719   26.3150291    158.9114990   -29.5740509   23.7684498    -15.7431698   -71.7731934   
70000000      -8.2881336    -45.1369400   26.1310596    157.9597931   -29.7034302   23.5142307    -16.9629192   -74.1787567   
80000000      -8.6969786    -46.1267204   25.9670906    156.9358063   -29.6161804   23.3564091    -18.2188797   -75.6020126   
90000000      -9.0322628    -47.2526093   25.8269196    155.8271027   -29.4381905   23.2137108    -19.3650894   -76.3304214   
100000000     -9.2733364    -48.4729004   25.7019005    154.6100006   -29.3587208   23.3515091    -20.3861008   -76.9217377   
110000000     -9.4730597    -49.7324600   25.5847702    153.2745972   -29.2931709   23.0488205    -21.3926392   -76.8433914   
120000000     -9.6496134    -51.2992516   25.4753094    152.0251007   -29.1887093   24.1994495    -22.2983799   -77.1701508   
130000000     -9.7955399    -53.2076492   25.3488998    150.6909027   -28.7633095   24.3176498    -23.3386593   -78.4348373   
140000000     -9.9887896    -54.5852890   25.2352600    149.3356934   -28.9188404   25.2310200    -24.0534191   -75.5083008   
150000000     -10.1981897   -56.3726883   25.1189594    148.0339966   -28.8552208   24.8089294    -24.9659595   -75.8001328   
160000000     -10.3070602   -58.0133095   25.0014992    146.6824951   -28.8243599   25.7938805    -25.7938194   -74.6956863   
170000000     -10.4204998   -59.6828117   24.8859291    145.3862000   -28.6611691   26.7647495    -26.6996193   -72.1701736   
180000000     -10.5543604   -61.4769592   24.7715492    144.0597992   -28.6283894   27.0758705    -27.4107399   -70.5699615   
190000000     -10.6740904   -63.4563713   24.6536503    142.7843018   -28.5338097   27.8326702    -28.2471809   -68.2687607   
200000000     -10.8082199   -65.3922729   24.5266209    141.4671936   -28.4671803   28.5540409    -29.1087208   -66.9468231   
210000000     -10.9122000   -67.1941605   24.4008293    140.2498016   -28.3835201   28.8870392    -29.9490299   -62.4961319   
220000000     -11.0213203   -69.2818832   24.2770100    139.0046997   -28.4588699   29.8128109    -30.7583809   -61.3677483   
230000000     -11.1145000   -71.1328583   24.1571503    137.8076019   -28.1720409   30.8081207    -31.6989002   -56.4985809   
240000000     -11.2399902   -73.0498428   24.0250607    136.6060944   -28.0725498   30.8731594    -32.7013893   -50.6843109   
250000000     -11.3439198   -74.8081436   23.9048405    135.3827057   -27.9172802   31.4671097    -33.3813019   -45.5735397   
260000000     -11.4420996   -76.9574966   23.7767601    134.2503967   -27.8757896   32.1722908    -34.3371315   -37.5014305   
270000000     -11.5289001   -78.6563034   23.6468201    133.1127014   -27.7585506   33.4088516    -34.5509491   -32.8124886   
280000000     -11.6088800   -80.6015091   23.5242996    132.0437927   -27.6673603   33.0039101    -34.8919716   -25.9795303   
290000000     -11.7109098   -82.2534637   23.3969593    130.9234924   -27.5797997   34.1633987    -35.2710915   -18.0428505   
300000000     -11.7288904   -84.1233902   23.2643700    129.8603973   -27.4141808   34.9758301    -35.1619186   -16.0615196   
310000000     -11.8609304   -85.8445129   23.1473503    128.8358002   -27.3814793   35.0175285    -34.7522202   -7.2205162    
320000000     -11.9307899   -87.6618500   23.0147209    127.7978973   -27.1513996   35.3237305    -34.7092209   -2.8594990    
330000000     -11.9724302   -89.2424698   22.8879108    126.8208008   -27.0979805   36.4512711    -34.3052788   3.3023551     
340000000     -12.0616598   -90.8432465   22.7663097    125.8522034   -27.0736904   36.3994713    -33.8210602   7.3577180     
350000000     -12.0870504   -92.3475571   22.6366196    124.9072037   -26.8879509   36.1420593    -33.2114716   9.0718060     
360000000     -12.1824999   -93.9337921   22.5154095    123.9479980   -26.7632904   37.6212883    -32.9865685   12.8584099    
370000000     -12.2560501   -95.4784164   22.3926792    123.0252991   -26.6500893   37.7826881    -32.7507782   14.3635998    
380000000     -12.3444996   -96.7509003   22.2663002    122.1400986   -26.5948296   38.4859810    -32.0821495   16.6685600    
390000000     -12.4026003   -98.4688797   22.1403809    121.2194977   -26.5000000   38.9821587    -32.0357094   16.7978096    
400000000     -12.4729996   -99.7092438   22.0266495    120.3886032   -26.3466797   39.1887398    -31.4443607   18.8093700    
410000000     -12.5318899   -101.3746033  21.8990593    119.5333023   -26.2654991   40.0806198    -31.1977901   21.1998005    
420000000     -12.5665798   -102.4548035  21.7864895    118.7096024   -26.1319695   40.1736298    -30.8503208   19.7619591    
430000000     -12.6274700   -104.0360031  21.6659393    117.8768997   -25.9971199   41.1610603    -30.5418701   19.7213306    
440000000     -12.6911097   -105.2798004  21.5496998    117.0777969   -25.9605694   40.8122787    -30.3642197   19.5545006    
450000000     -12.7608204   -106.5537033  21.4346409    116.3078003   -25.8029709   41.5235291    -29.9457798   20.4492207    
460000000     -12.8302202   -107.9848022  21.3158703    115.4961014   -25.7004395   41.6163101    -29.9690495   18.9837303    
470000000     -12.8730402   -109.3177032  21.1995506    114.7670975   -25.5930996   42.5259705    -29.6996803   20.3631496    
480000000     -12.9270000   -110.6268005  21.0854893    113.9673996   -25.5337505   42.4749107    -29.4833603   20.8425694    
490000000     -13.0201101   -111.9854965  20.9618607    113.2698975   -25.4521599   42.4378700    -29.1032791   21.8194408    
500000000     -13.1222601   -113.4054031  20.8472195    112.4956970   -25.3186798   43.0401497    -28.8159504   20.8135300    
510000000     -13.2115097   -113.9981003  20.7316208    111.8479996   -25.2166405   43.3415298    -28.5170307   19.4395504    
520000000     -13.1717701   -115.1692963  20.6303406    111.1754990   -25.0615902   43.8466415    -28.4543400   18.2344303    
530000000     -13.2322302   -116.3817978  20.5251102    110.4636993   -24.9798107   43.9269104    -28.2894402   17.3588104    
540000000     -13.2718801   -117.5360031  20.4163094    109.7878036   -24.9128704   44.4740715    -28.3139305   17.3508396    
550000000     -13.3034697   -118.7542038  20.3076801    109.1371002   -24.8002110   44.4921112    -28.1880398   17.6439095    
560000000     -13.3550100   -120.0104980  20.2042503    108.4623032   -24.7021198   44.5196991    -28.1803398   17.2135696    
570000000     -13.3675804   -121.0738983  20.0943699    107.8093033   -24.5726109   45.0145302    -28.0130291   16.6604004    
580000000     -13.4046803   -122.3411026  19.9931202    107.1661987   -24.5024605   44.7968788    -27.8567410   16.4587307    
590000000     -13.3998499   -123.3371964  19.8871002    106.5355988   -24.3863602   45.4457397    -27.7935009   15.7097301    
600000000     -13.4486303   -124.4169998  19.7841606    105.9018021   -24.2846909   45.5754089    -27.6809998   15.7161598    
610000000     -13.4441099   -125.4707031  19.6778698    105.2776031   -24.1858006   45.5725899    -27.6332798   15.5724001    
620000000     -13.4718800   -126.4990997  19.5786705    104.7113037   -24.1089993   45.9785614    -27.3810806   16.4510994    
630000000     -13.4815598   -127.4318008  19.4752102    104.1079025   -23.9431705   46.2144203    -27.2745609   15.6587400    
640000000     -13.5176001   -128.3493958  19.3775902    103.5503006   -23.9186192   46.0583496    -27.2712193   15.5064697    
650000000     -13.5119305   -129.2265015  19.2814007    102.9591980   -23.8167191   46.3486099    -27.1889706   14.1606503    
660000000     -13.5270596   -130.2501984  19.1791706    102.3787994   -23.7193203   46.7079086    -27.0458202   13.5580301    
670000000     -13.5600700   -131.1325989  19.0845108    101.8153000   -23.6254292   46.6576195    -26.9009800   13.5259600    
680000000     -13.5725498   -132.1549072  18.9859600    101.2687988   -23.5055695   46.8587494    -26.8571892   13.5754404    
690000000     -13.5923100   -132.9436951  18.8913307    100.7304001   -23.4434299   46.8242607    -26.5927792   13.8818197    
700000000     -13.6046400   -133.7756958  18.7966404    100.1783981   -23.3810692   47.0278511    -26.6491604   13.5540104    
710000000     -13.5912304   -134.6882935  18.7012997    99.6310730    -23.2244205   47.1047783    -26.5667496   12.7068005    
720000000     -13.6354399   -135.5489044  18.6066303    99.1054306    -23.1613197   47.2565689    -26.4366798   13.4127903    
730000000     -13.6541996   -136.3854980  18.5160198    98.5979004    -23.0812092   47.2789192    -26.3826904   13.4908800    
740000000     -13.7014799   -137.5384979  18.4241600    98.0413513    -23.0180397   47.4780197    -26.4348392   12.8418303    
750000000     -13.7091303   -138.2140961  18.3314991    97.5849228    -22.9084396   47.6963882    -26.2775402   11.9992599    
760000000     -13.7249298   -138.9900055  18.2501602    97.0492172    -22.8193092   47.7943611    -26.2066593   11.5300999    
770000000     -13.7498503   -139.5599976  18.1539707    96.5728226    -22.7364006   48.0599899    -26.0465794   10.9561501    
780000000     -13.7400703   -140.4705963  18.0673599    96.0838928    -22.6659908   47.8661995    -26.0457001   11.1166601    
790000000     -13.7961302   -141.3444061  17.9749603    95.6097870    -22.5880299   48.0533981    -25.9128609   10.4716702    
800000000     -13.7947798   -141.8150024  17.8963699    95.1513519    -22.4553204   48.1991310    -26.0120602   9.9529009     
810000000     -13.7808199   -142.6835022  17.8109398    94.6403427    -22.3588905   48.2804108    -25.9431496   9.3389378     
820000000     -13.7990999   -143.5428009  17.7245007    94.2145691    -22.3073292   48.3437004    -26.0491104   8.6362743     
830000000     -13.8060703   -144.4319000  17.6429005    93.6965485    -22.2123508   48.3699608    -26.1154900   8.2749853     
840000000     -13.8249702   -145.3139038  17.5627308    93.2349930    -22.1392803   48.3640404    -26.2272205   8.3895388     
850000000     -13.8310299   -146.0431976  17.4722099    92.7828674    -22.1009808   48.3343315    -25.9179401   8.1143904     
860000000     -13.7985401   -146.5935059  17.3955097    92.3310928    -21.9959908   48.4452400    -26.0111198   6.6552529     
870000000     -13.7916603   -147.4963074  17.3121605    91.8606796    -21.9168491   48.3864708    -26.0513401   6.5750108     
880000000     -13.7924995   -148.1766052  17.2354507    91.4072571    -21.8390598   48.4224091    -26.1310196   6.2925429     
890000000     -13.7863798   -148.8695068  17.1498108    90.9595032    -21.7202206   48.5541801    -26.1123505   6.1602468     
900000000     -13.7861099   -149.8193970  17.0702705    90.4902191    -21.6767902   48.5436096    -26.1751995   6.4175372     
910000000     -13.7649298   -150.6882019  16.9900799    90.0171432    -21.5963097   48.2931786    -26.0973892   6.7218060     
920000000     -13.7808104   -151.1342010  16.9061394    89.6496429    -21.5304298   48.5549202    -26.0842400   5.7419930     
930000000     -13.8165903   -152.0756073  16.8307400    89.1858521    -21.4517403   48.4574203    -26.0886803   4.8969550     
940000000     -13.8175802   -152.8730927  16.7458706    88.7984009    -21.3980808   48.6457901    -25.8679409   4.0818739     
950000000     -13.8398199   -152.9732971  16.6771107    88.4315338    -21.3255806   48.6838608    -25.9982605   2.8917150     
960000000     -13.7962799   -153.6618042  16.6063805    87.9748230    -21.2337303   48.6769791    -26.0778809   2.9251080     
970000000     -13.8413401   -154.1459045  16.5284004    87.5764236    -21.1644192   48.5986099    -26.0911198   1.6219090     
980000000     -13.8080196   -154.8338928  16.4575806    87.1713486    -21.0593605   48.6868591    -26.1485996   1.3390890     
990000000     -13.8213100   -155.1773071  16.3836002    86.7389832    -20.9848709   48.7391891    -26.1110592   1.3852010     
1000000000    -13.7787905   -155.9223938  16.3112297    86.3556213    -20.9510593   48.5881004    -26.1296406   1.2532440     
1025000000    -13.8269196   -157.2812958  16.1333694    85.3439407    -20.7503510   48.5419502    -25.9960499   -0.6855951    
1050000000    -13.8228998   -158.6566925  15.9600296    84.3704834    -20.6064205   48.5909309    -26.0357800   -1.3378000    
1075000000    -13.8368101   -160.0516968  15.7862997    83.3880081    -20.3929291   48.5254593    -25.9067307   -2.9961431    
1100000000    -13.8649797   -161.4474945  15.6221504    82.4106293    -20.2363396   48.5404015    -26.0364399   -4.4904528    
1125000000    -13.8414097   -162.9609985  15.4532003    81.4622116    -20.0732403   48.3105392    -26.0547104   -5.7030640    
1150000000    -13.8304996   -164.3135986  15.2937403    80.5240402    -19.8990097   48.1357498    -26.0867596   -7.5796752    
1175000000    -13.8164301   -166.0973969  15.1241598    79.5643387    -19.7662907   48.0073318    -26.1210804   -7.6988120    
1200000000    -13.8564796   -166.9095001  14.9662504    78.7960815    -19.5813408   47.9711113    -25.9572296   -9.9772367    
1225000000    -13.7885504   -168.0693054  14.8180504    77.8467026    -19.4570103   47.7133408    -26.1311398   -11.3498898   
1250000000    -13.7384396   -169.2046967  14.6637697    76.9875870    -19.2718391   47.5812988    -26.2023296   -12.1259203   
1275000000    -13.7064505   -170.1956024  14.5121603    76.0756226    -19.1514091   47.3641090    -26.4340496   -12.4291000   
1300000000    -13.6778603   -171.1779022  14.3706398    75.2501373    -18.9931393   47.3547211    -26.2973804   -13.5271301   
1325000000    -13.6639795   -172.3665924  14.2251301    74.3867798    -18.8530598   47.1257019    -26.2275105   -14.0544701   
1350000000    -13.6565304   -173.1463928  14.0899601    73.5628433    -18.7196007   46.7510300    -26.2558002   -16.0530396   
1375000000    -13.6543503   -173.9958038  13.9574900    72.7522202    -18.5848007   46.6123085    -26.2802105   -17.1324596   
1400000000    -13.6283102   -175.0455933  13.8223495    71.9132767    -18.4311790   46.3864288    -26.0870094   -19.2245502   
1425000000    -13.6420498   -175.9761047  13.6896296    71.0879135    -18.2929993   46.0026512    -26.2247791   -21.3798008   
1450000000    -13.6413403   -177.0731049  13.5564699    70.2519073    -18.1488209   45.8763885    -26.2295799   -23.1781101   
1475000000    -13.6617098   -177.8480988  13.4284000    69.4600067    -18.0342503   45.5003510    -26.3230400   -24.9302292   
1500000000    -13.6467600   -178.8052063  13.3038502    68.6285629    -17.9127407   45.3254509    -26.2563000   -26.5552502   
1525000000    -13.6278095   -179.6690063  13.1813202    67.8866196    -17.7861404   45.0773392    -26.2960396   -27.6405792   
1550000000    -13.6289701   179.0968018   13.0579300    67.0612106    -17.6690292   44.8493500    -26.2090206   -29.7356491   
1575000000    -13.6006203   178.2642975   12.9341097    66.2801590    -17.5368805   44.5469513    -26.1577702   -30.4068699   
1600000000    -13.5544205   177.6815033   12.8138103    65.5067978    -17.4118690   44.2821007    -26.2153091   -30.8516598   
1625000000    -13.5390797   176.6094971   12.7002897    64.7485504    -17.2930107   43.9188690    -26.0589600   -32.0458603   
1650000000    -13.5168505   176.0429993   12.5816803    63.9901009    -17.1699409   43.5676117    -26.1111298   -32.4266815   
1675000000    -13.4869499   175.0753937   12.4721603    63.2475891    -17.0664406   43.3209305    -25.8949604   -34.3033218   
1700000000    -13.5003405   174.7391968   12.3518496    62.5411606    -16.9627399   43.1839294    -25.7768192   -33.7368698   
1725000000    -13.4857903   173.9965973   12.2570295    61.7818184    -16.8272896   42.8515396    -25.6604500   -37.2243881   
1750000000    -13.5013599   173.4886932   12.1462297    60.9954300    -16.6997604   42.5047302    -25.7105808   -38.4160194   
1775000000    -13.5427599   172.6578979   12.0388803    60.2882996    -16.6060200   42.1441689    -25.4529095   -40.7026482   
1800000000    -13.5167198   172.0789948   11.9363403    59.5704613    -16.5091305   41.8282890    -25.4170895   -41.6714783   
1825000000    -13.5650597   171.1287994   11.8306503    58.7997894    -16.4224796   41.4089508    -25.3157196   -42.8628616   
1850000000    -13.5760899   170.4344025   11.7333002    58.0837402    -16.2857800   41.0727310    -25.3128605   -45.8118515   
1875000000    -13.5789299   169.6965942   11.6350403    57.3606796    -16.1803303   40.7500496    -25.1072102   -46.3528099   
1900000000    -13.5986700   169.0919037   11.5305500    56.6662216    -16.0644093   40.5536995    -25.1500702   -46.8240395   
1925000000    -13.5972605   168.0605927   11.4380503    55.8965683    -16.0073395   40.1106110    -24.9031792   -48.0357590   
1950000000    -13.5929699   167.4907990   11.3406801    55.1929207    -15.8923903   39.7705193    -24.8870792   -48.8050804   
1975000000    -13.5431805   167.1387024   11.2500801    54.5068703    -15.7791405   39.4550705    -24.6799793   -49.3153610   
2000000000    -13.5207500   166.5997925   11.1564398    53.7819405    -15.6971302   39.0547409    -24.5471706   -50.5290794   
2025000000    -13.5435495   166.5242004   11.0626402    53.0976295    -15.5874205   38.7933197    -24.2873993   -51.1692009   
2050000000    -13.5546904   166.0608063   10.9707499    52.3758583    -15.5120497   38.3234482    -24.0801506   -52.1304016   
2075000000    -13.5853205   165.5245972   10.8830299    51.7350883    -15.4394798   38.0454597    -23.8770504   -52.7043610   
2100000000    -13.6446104   165.1163025   10.7960997    51.0248413    -15.3239298   37.6652985    -23.6672497   -54.1864891   
2125000000    -13.6822004   164.8312988   10.7128897    50.3180389    -15.2272596   37.2480202    -23.5495205   -55.0792313   
2150000000    -13.7262402   163.9888000   10.6298504    49.6087418    -15.1163702   36.9135590    -23.4723492   -56.2097816   
2175000000    -13.7588997   163.2743073   10.5406799    48.8915291    -15.0506296   36.5290413    -23.5112495   -56.8521881   
2200000000    -13.7641296   162.4523926   10.4639597    48.2417908    -14.9364796   36.1665192    -23.2349491   -58.5810089   
2225000000    -13.7725601   161.7700958   10.3823900    47.5638390    -14.8602600   35.7452316    -23.2577496   -59.1002197   
2250000000    -13.6927500   161.0057983   10.3009596    46.8222809    -14.7690296   35.3393211    -23.1020508   -59.4389801   
2275000000    -13.7373304   160.5211029   10.2141399    46.1858711    -14.6836004   34.8405609    -22.9758797   -60.5985413   
2300000000    -13.7761602   160.1125946   10.1349297    45.5524101    -14.6238003   34.6287003    -22.8572292   -60.7887001   
