!TQP3M9037
!De-embedded S-parameters 10MHz - 8.5GHz
!Vdd = +5V, Idd = 75mA
!LOT 6052
!Agilent Technologies,E5071C,MY46214511,A.10.06
!Date: Mon Aug 10 15:33:35 2015
!Data & Calibration Information:
!Freq	S11:SOLT2(ON)	S21:SOLT2(ON)	S12:SOLT2(ON)	S22:SOLT2(ON)
!PortZ  Port1:50+j0    Port2:50+j0
!Above PortZ is port z conversion or system Z0 setting when saving the data.
!When reading, reference impedance value at option line is always used.
# Hz S dB R 50
10000000	-7.366000e+000	-1.218855e+001	2.932165e+001	1.680046e+002	-3.370033e+001	2.062650e+001	-2.100647e+001	-2.458596e+001
20000000	-7.748510e+000	-9.464128e+000	2.884128e+001	1.725507e+002	-3.335047e+001	1.433612e+001	-2.065810e+001	-7.819544e-001
30000000	-6.451295e+000	-2.668206e+001	2.877192e+001	1.758558e+002	-3.315869e+001	1.241521e+001	-1.545535e+001	-2.291667e+001
40000000	-6.918438e+000	-1.568242e+001	2.877049e+001	1.758848e+002	-3.320426e+001	1.143830e+001	-1.540280e+001	-2.939521e+001
50000000	-7.424478e+000	-1.417199e+001	2.862857e+001	1.730826e+002	-3.331002e+001	6.866050e+000	-1.439172e+001	1.975316e+001
60000000	-7.156870e+000	-1.308356e+001	2.874602e+001	1.730630e+002	-3.285152e+001	6.725727e+000	-1.656223e+001	7.430526e+000
70000000	-8.111611e+000	-1.259629e+001	2.876341e+001	1.721052e+002	-3.303705e+001	5.691959e+000	-1.566759e+001	1.142933e+001
80000000	-7.617104e+000	-1.529342e+001	2.877335e+001	1.718489e+002	-3.296005e+001	7.169588e+000	-1.601696e+001	-9.079744e-001
90000000	-7.642024e+000	-1.673206e+001	2.874216e+001	1.704143e+002	-3.290121e+001	5.620244e+000	-1.540474e+001	1.183771e+001
100000000	-8.275157e+000	-1.832703e+001	2.879757e+001	1.696895e+002	-3.253376e+001	5.870257e+000	-1.655398e+001	6.036495e+000
110000000	-7.722567e+000	-1.627524e+001	2.869988e+001	1.686969e+002	-3.299549e+001	4.293057e+000	-1.463514e+001	7.044046e+000
120000000	-7.855547e+000	-1.800812e+001	2.873440e+001	1.676174e+002	-3.291036e+001	4.920930e+000	-1.593298e+001	1.061605e+001
130000000	-7.973026e+000	-1.615651e+001	2.872811e+001	1.664899e+002	-3.261071e+001	4.789164e+000	-1.553717e+001	1.105203e+001
140000000	-7.982570e+000	-2.069012e+001	2.870053e+001	1.660165e+002	-3.272617e+001	4.655050e+000	-1.506858e+001	3.592915e+000
150000000	-7.409707e+000	-2.073123e+001	2.861299e+001	1.650382e+002	-3.292190e+001	5.069297e+000	-1.444431e+001	3.744507e+000
160000000	-7.535745e+000	-2.363235e+001	2.863725e+001	1.643533e+002	-3.264426e+001	5.914333e+000	-1.505226e+001	-9.843939e-001
170000000	-7.601717e+000	-2.260088e+001	2.858987e+001	1.630800e+002	-3.257239e+001	5.474683e+000	-1.475981e+001	5.476979e+000
180000000	-7.558366e+000	-2.458623e+001	2.857013e+001	1.622520e+002	-3.272997e+001	5.869667e+000	-1.466568e+001	3.875552e+000
190000000	-7.782493e+000	-2.560514e+001	2.857047e+001	1.612685e+002	-3.266176e+001	5.455187e+000	-1.523364e+001	2.887347e+000
200000000	-7.829099e+000	-2.699444e+001	2.854344e+001	1.603069e+002	-3.265292e+001	6.490915e+000	-1.518169e+001	4.201020e+000
210000000	-8.024624e+000	-2.698400e+001	2.849888e+001	1.595299e+002	-3.273627e+001	6.567107e+000	-1.462617e+001	-1.141530e+000
220000000	-7.808169e+000	-2.958566e+001	2.845220e+001	1.584724e+002	-3.270301e+001	6.145899e+000	-1.447101e+001	4.082354e+000
230000000	-7.959701e+000	-3.107634e+001	2.847878e+001	1.577310e+002	-3.252620e+001	5.893162e+000	-1.530494e+001	-1.054669e+000
240000000	-7.904533e+000	-3.038487e+001	2.839737e+001	1.565248e+002	-3.258200e+001	5.512489e+000	-1.469371e+001	3.032226e+000
250000000	-8.188436e+000	-3.310794e+001	2.836751e+001	1.558360e+002	-3.274085e+001	6.752082e+000	-1.446732e+001	2.734042e+000
260000000	-7.967608e+000	-3.437546e+001	2.833160e+001	1.548872e+002	-3.254343e+001	6.091433e+000	-1.452070e+001	2.267984e+000
270000000	-7.908196e+000	-3.397965e+001	2.828428e+001	1.541818e+002	-3.268252e+001	5.912855e+000	-1.431274e+001	-6.123373e-001
280000000	-8.032795e+000	-3.500075e+001	2.822803e+001	1.532778e+002	-3.251937e+001	6.670756e+000	-1.416965e+001	5.009870e-001
290000000	-8.006114e+000	-3.643749e+001	2.818840e+001	1.523251e+002	-3.247283e+001	6.617626e+000	-1.401586e+001	1.658798e+000
300000000	-8.042336e+000	-3.710373e+001	2.816194e+001	1.512738e+002	-3.263137e+001	7.260950e+000	-1.430761e+001	3.295289e+000
310000000	-8.129107e+000	-3.856712e+001	2.814048e+001	1.505564e+002	-3.260989e+001	6.783617e+000	-1.443191e+001	2.899743e-001
320000000	-8.231484e+000	-4.020704e+001	2.808407e+001	1.496655e+002	-3.263508e+001	7.010076e+000	-1.439563e+001	7.053167e-001
330000000	-8.120930e+000	-3.995055e+001	2.802038e+001	1.488111e+002	-3.261352e+001	8.086724e+000	-1.399193e+001	5.781095e-001
340000000	-8.178091e+000	-4.202496e+001	2.799551e+001	1.480513e+002	-3.255948e+001	7.033984e+000	-1.416815e+001	-1.443200e-001
350000000	-8.109725e+000	-4.239430e+001	2.794366e+001	1.472514e+002	-3.252113e+001	7.536669e+000	-1.407586e+001	-1.073788e+000
360000000	-8.289543e+000	-4.403268e+001	2.789109e+001	1.463280e+002	-3.268146e+001	8.882290e+000	-1.399450e+001	4.360334e-001
370000000	-8.320430e+000	-4.396739e+001	2.786859e+001	1.453947e+002	-3.252019e+001	8.096747e+000	-1.410198e+001	8.837880e-002
380000000	-8.328720e+000	-4.607615e+001	2.781307e+001	1.446882e+002	-3.259374e+001	7.479120e+000	-1.395488e+001	-1.050773e+000
390000000	-8.425732e+000	-4.625172e+001	2.776070e+001	1.439552e+002	-3.255321e+001	8.336803e+000	-1.368774e+001	-2.299256e+000
400000000	-8.370036e+000	-4.766365e+001	2.771582e+001	1.431382e+002	-3.255613e+001	8.681747e+000	-1.391191e+001	-2.377772e+000
410000000	-8.330019e+000	-4.892765e+001	2.766848e+001	1.423050e+002	-3.255859e+001	8.247138e+000	-1.380142e+001	-2.977779e+000
420000000	-8.414303e+000	-4.963155e+001	2.762399e+001	1.415070e+002	-3.263486e+001	8.857380e+000	-1.402071e+001	-2.475678e+000
430000000	-8.372014e+000	-5.179974e+001	2.759681e+001	1.408975e+002	-3.246229e+001	9.394291e+000	-1.404059e+001	-5.237279e+000
440000000	-8.370793e+000	-5.272617e+001	2.754609e+001	1.400574e+002	-3.257488e+001	9.612681e+000	-1.412968e+001	-4.314741e+000
450000000	-8.265500e+000	-5.361306e+001	2.748068e+001	1.393362e+002	-3.247568e+001	9.059159e+000	-1.370949e+001	-4.681587e+000
460000000	-8.483311e+000	-5.349086e+001	2.741706e+001	1.384505e+002	-3.245598e+001	8.982960e+000	-1.363225e+001	-3.404453e+000
470000000	-8.449976e+000	-5.464529e+001	2.736305e+001	1.377899e+002	-3.234289e+001	9.854920e+000	-1.345379e+001	-4.130762e+000
480000000	-8.654224e+000	-5.596120e+001	2.733172e+001	1.369306e+002	-3.256147e+001	9.680616e+000	-1.387941e+001	-4.539604e+000
490000000	-8.401137e+000	-5.705551e+001	2.727567e+001	1.362713e+002	-3.241458e+001	1.040955e+001	-1.351947e+001	-4.848380e+000
500000000	-8.574067e+000	-5.780508e+001	2.722985e+001	1.354645e+002	-3.253565e+001	1.050400e+001	-1.377992e+001	-4.525620e+000
510000000	-8.543581e+000	-5.814485e+001	2.715686e+001	1.347849e+002	-3.252231e+001	1.069622e+001	-1.337872e+001	-4.447977e+000
520000000	-8.647557e+000	-5.970066e+001	2.711680e+001	1.339801e+002	-3.230856e+001	9.702067e+000	-1.362859e+001	-5.141872e+000
530000000	-8.606915e+000	-6.051375e+001	2.706821e+001	1.334516e+002	-3.237962e+001	1.106855e+001	-1.341042e+001	-6.456058e+000
540000000	-8.637572e+000	-6.159055e+001	2.699558e+001	1.326216e+002	-3.236358e+001	1.115081e+001	-1.334298e+001	-5.974521e+000
550000000	-8.697207e+000	-6.262202e+001	2.696446e+001	1.319451e+002	-3.222769e+001	1.017362e+001	-1.354389e+001	-7.841673e+000
560000000	-8.723413e+000	-6.342048e+001	2.691219e+001	1.312183e+002	-3.248499e+001	1.037421e+001	-1.352555e+001	-7.622741e+000
570000000	-8.822915e+000	-6.413567e+001	2.684582e+001	1.304927e+002	-3.242984e+001	1.123066e+001	-1.341537e+001	-7.080157e+000
580000000	-8.864256e+000	-6.500316e+001	2.678348e+001	1.298549e+002	-3.241088e+001	1.113366e+001	-1.326599e+001	-8.262716e+000
590000000	-8.835990e+000	-6.657952e+001	2.675994e+001	1.292014e+002	-3.229950e+001	1.160259e+001	-1.338149e+001	-9.667277e+000
600000000	-8.876195e+000	-6.677770e+001	2.669523e+001	1.284505e+002	-3.224539e+001	1.150852e+001	-1.343015e+001	-8.891081e+000
610000000	-8.956928e+000	-6.769847e+001	2.663537e+001	1.278728e+002	-3.242523e+001	1.180792e+001	-1.329696e+001	-8.860434e+000
620000000	-8.964186e+000	-6.870287e+001	2.659449e+001	1.271713e+002	-3.219219e+001	1.282675e+001	-1.338222e+001	-9.650503e+000
630000000	-8.991297e+000	-6.963039e+001	2.652624e+001	1.265049e+002	-3.212162e+001	1.243617e+001	-1.318190e+001	-1.018450e+001
640000000	-8.878882e+000	-7.063368e+001	2.648370e+001	1.258862e+002	-3.225105e+001	1.315085e+001	-1.332828e+001	-1.113116e+001
650000000	-9.012937e+000	-7.104842e+001	2.641335e+001	1.252718e+002	-3.221468e+001	1.147337e+001	-1.316101e+001	-1.089938e+001
660000000	-9.004972e+000	-7.176681e+001	2.637529e+001	1.245481e+002	-3.220084e+001	1.280638e+001	-1.309733e+001	-1.140982e+001
670000000	-8.996960e+000	-7.250057e+001	2.630641e+001	1.239506e+002	-3.222694e+001	1.379956e+001	-1.312322e+001	-1.220182e+001
680000000	-9.099385e+000	-7.347941e+001	2.625424e+001	1.232924e+002	-3.198635e+001	1.287018e+001	-1.313357e+001	-1.128915e+001
690000000	-9.071954e+000	-7.444751e+001	2.619860e+001	1.226827e+002	-3.211633e+001	1.364442e+001	-1.307320e+001	-1.250139e+001
700000000	-9.062262e+000	-7.482757e+001	2.613673e+001	1.221060e+002	-3.198642e+001	1.394323e+001	-1.313583e+001	-1.263764e+001
710000000	-9.126911e+000	-7.594963e+001	2.609230e+001	1.215003e+002	-3.211264e+001	1.361192e+001	-1.308082e+001	-1.339003e+001
720000000	-9.112008e+000	-7.692142e+001	2.603992e+001	1.209050e+002	-3.210860e+001	1.426330e+001	-1.317906e+001	-1.367571e+001
730000000	-9.102729e+000	-7.852040e+001	2.600733e+001	1.202210e+002	-3.214075e+001	1.393168e+001	-1.320604e+001	-1.496472e+001
740000000	-9.150793e+000	-7.865367e+001	2.593886e+001	1.196087e+002	-3.211346e+001	1.398693e+001	-1.319018e+001	-1.437890e+001
750000000	-9.246675e+000	-8.000064e+001	2.588302e+001	1.191166e+002	-3.200094e+001	1.401400e+001	-1.301538e+001	-1.514265e+001
760000000	-9.269165e+000	-8.043302e+001	2.582435e+001	1.183918e+002	-3.193602e+001	1.464382e+001	-1.303652e+001	-1.503515e+001
770000000	-9.323001e+000	-8.068494e+001	2.577775e+001	1.178321e+002	-3.195679e+001	1.382247e+001	-1.302875e+001	-1.603940e+001
780000000	-9.329261e+000	-8.173356e+001	2.570777e+001	1.172415e+002	-3.186131e+001	1.355859e+001	-1.285805e+001	-1.516775e+001
790000000	-9.334251e+000	-8.227526e+001	2.566251e+001	1.166949e+002	-3.177908e+001	1.464498e+001	-1.299136e+001	-1.672254e+001
800000000	-9.331488e+000	-8.323606e+001	2.560541e+001	1.161837e+002	-3.183580e+001	1.488094e+001	-1.289793e+001	-1.747412e+001
810000000	-9.399912e+000	-8.344635e+001	2.554826e+001	1.154716e+002	-3.174152e+001	1.373195e+001	-1.298013e+001	-1.713683e+001
820000000	-9.367353e+000	-8.414140e+001	2.549459e+001	1.150276e+002	-3.174727e+001	1.484569e+001	-1.278188e+001	-1.780768e+001
830000000	-9.415225e+000	-8.511017e+001	2.543751e+001	1.143504e+002	-3.174250e+001	1.513010e+001	-1.284268e+001	-1.784725e+001
840000000	-9.484383e+000	-8.612063e+001	2.538310e+001	1.137986e+002	-3.179478e+001	1.559906e+001	-1.293224e+001	-1.829025e+001
850000000	-9.489340e+000	-8.707765e+001	2.534021e+001	1.132411e+002	-3.175187e+001	1.482081e+001	-1.302076e+001	-1.868440e+001
860000000	-9.563453e+000	-8.707466e+001	2.527644e+001	1.126797e+002	-3.190963e+001	1.541099e+001	-1.287909e+001	-1.888314e+001
870000000	-9.503208e+000	-8.853147e+001	2.524259e+001	1.122073e+002	-3.169062e+001	1.616816e+001	-1.291891e+001	-2.004751e+001
880000000	-9.612416e+000	-8.845505e+001	2.516960e+001	1.116508e+002	-3.174330e+001	1.606639e+001	-1.274202e+001	-1.986432e+001
890000000	-9.672359e+000	-8.968602e+001	2.512573e+001	1.110115e+002	-3.165537e+001	1.576212e+001	-1.291097e+001	-2.010814e+001
900000000	-9.686365e+000	-9.008604e+001	2.507431e+001	1.105484e+002	-3.163762e+001	1.607686e+001	-1.282762e+001	-2.072921e+001
910000000	-9.753951e+000	-9.039284e+001	2.501331e+001	1.099961e+002	-3.160673e+001	1.594358e+001	-1.283441e+001	-2.078280e+001
920000000	-9.659866e+000	-9.131897e+001	2.496998e+001	1.094684e+002	-3.159568e+001	1.657178e+001	-1.285161e+001	-2.163541e+001
930000000	-9.741247e+000	-9.245378e+001	2.490251e+001	1.089377e+002	-3.160607e+001	1.599242e+001	-1.284316e+001	-2.195760e+001
940000000	-9.704521e+000	-9.255725e+001	2.486339e+001	1.084324e+002	-3.158207e+001	1.757027e+001	-1.267676e+001	-2.214570e+001
950000000	-9.840588e+000	-9.359361e+001	2.480792e+001	1.079730e+002	-3.148931e+001	1.672875e+001	-1.275194e+001	-2.315192e+001
960000000	-9.800583e+000	-9.408276e+001	2.474765e+001	1.074345e+002	-3.151330e+001	1.640496e+001	-1.283295e+001	-2.335955e+001
970000000	-9.788649e+000	-9.438858e+001	2.469766e+001	1.069178e+002	-3.147185e+001	1.669542e+001	-1.276896e+001	-2.403101e+001
980000000	-9.766186e+000	-9.553520e+001	2.465202e+001	1.063909e+002	-3.130054e+001	1.739536e+001	-1.277815e+001	-2.412659e+001
990000000	-9.836264e+000	-9.597514e+001	2.458969e+001	1.058032e+002	-3.130672e+001	1.763077e+001	-1.280652e+001	-2.374288e+001
1000000000	-9.840839e+000	-9.671422e+001	2.456014e+001	1.054253e+002	-3.134850e+001	1.726646e+001	-1.270289e+001	-2.475831e+001
1010000000	-9.890677e+000	-9.737922e+001	2.450281e+001	1.049151e+002	-3.128029e+001	1.717661e+001	-1.275409e+001	-2.608779e+001
1020000000	-1.007297e+001	-9.775232e+001	2.444072e+001	1.043570e+002	-3.140263e+001	1.710266e+001	-1.280482e+001	-2.545648e+001
1030000000	-9.914777e+000	-9.894289e+001	2.440480e+001	1.039026e+002	-3.134476e+001	1.826884e+001	-1.273309e+001	-2.605705e+001
1040000000	-9.995391e+000	-9.886208e+001	2.433228e+001	1.034409e+002	-3.129344e+001	1.757897e+001	-1.269457e+001	-2.626182e+001
1050000000	-9.968989e+000	-9.960950e+001	2.428173e+001	1.029797e+002	-3.136707e+001	1.803802e+001	-1.265008e+001	-2.692813e+001
1060000000	-1.003146e+001	-9.961450e+001	2.422763e+001	1.024736e+002	-3.121030e+001	1.771840e+001	-1.264765e+001	-2.714922e+001
1070000000	-1.010037e+001	-1.005530e+002	2.418747e+001	1.019147e+002	-3.116545e+001	1.788461e+001	-1.267547e+001	-2.741643e+001
1080000000	-1.010455e+001	-1.010682e+002	2.413103e+001	1.015998e+002	-3.123838e+001	1.698007e+001	-1.258641e+001	-2.779703e+001
1090000000	-1.011920e+001	-1.018687e+002	2.407360e+001	1.010373e+002	-3.112361e+001	1.815966e+001	-1.265435e+001	-2.760821e+001
1100000000	-1.018801e+001	-1.019730e+002	2.403127e+001	1.006381e+002	-3.105666e+001	1.795754e+001	-1.255340e+001	-2.937112e+001
1110000000	-1.005162e+001	-1.035192e+002	2.397381e+001	1.000751e+002	-3.102992e+001	1.753315e+001	-1.256882e+001	-2.995318e+001
1120000000	-1.015502e+001	-1.039001e+002	2.393373e+001	9.958718e+001	-3.105957e+001	1.799137e+001	-1.264158e+001	-3.013617e+001
1130000000	-1.027824e+001	-1.045580e+002	2.388796e+001	9.908950e+001	-3.108329e+001	1.796624e+001	-1.264756e+001	-2.962336e+001
1140000000	-1.019011e+001	-1.050595e+002	2.382849e+001	9.863328e+001	-3.097531e+001	1.790857e+001	-1.268215e+001	-3.071738e+001
1150000000	-1.034336e+001	-1.058864e+002	2.377993e+001	9.820355e+001	-3.094232e+001	1.917222e+001	-1.263767e+001	-3.103227e+001
1160000000	-1.025753e+001	-1.057598e+002	2.372953e+001	9.776869e+001	-3.096609e+001	1.752559e+001	-1.263739e+001	-3.134733e+001
1170000000	-1.026887e+001	-1.075159e+002	2.369298e+001	9.724443e+001	-3.093258e+001	1.869600e+001	-1.270455e+001	-3.197722e+001
1180000000	-1.033944e+001	-1.070648e+002	2.362791e+001	9.690045e+001	-3.086426e+001	1.933647e+001	-1.253003e+001	-3.229737e+001
1190000000	-1.036064e+001	-1.078038e+002	2.359048e+001	9.642056e+001	-3.101091e+001	1.899700e+001	-1.254465e+001	-3.293685e+001
1200000000	-1.032337e+001	-1.085906e+002	2.353492e+001	9.603329e+001	-3.080111e+001	1.776080e+001	-1.258134e+001	-3.305962e+001
1210000000	-1.037002e+001	-1.087467e+002	2.347382e+001	9.555151e+001	-3.072752e+001	1.871948e+001	-1.253671e+001	-3.326607e+001
1220000000	-1.041339e+001	-1.093790e+002	2.343158e+001	9.513036e+001	-3.072477e+001	1.889330e+001	-1.257540e+001	-3.374656e+001
1230000000	-1.041776e+001	-1.098327e+002	2.339491e+001	9.465198e+001	-3.072114e+001	1.979567e+001	-1.252105e+001	-3.407945e+001
1240000000	-1.042143e+001	-1.101892e+002	2.333937e+001	9.418755e+001	-3.076702e+001	1.835401e+001	-1.257920e+001	-3.412785e+001
1250000000	-1.048530e+001	-1.112281e+002	2.328579e+001	9.382085e+001	-3.079208e+001	1.906878e+001	-1.253568e+001	-3.521529e+001
1260000000	-1.050636e+001	-1.114240e+002	2.325291e+001	9.340783e+001	-3.074485e+001	1.862878e+001	-1.255808e+001	-3.523416e+001
1270000000	-1.048549e+001	-1.116206e+002	2.319622e+001	9.300774e+001	-3.063721e+001	1.993249e+001	-1.257989e+001	-3.556972e+001
1280000000	-1.052857e+001	-1.121235e+002	2.315308e+001	9.250148e+001	-3.061136e+001	1.926068e+001	-1.253035e+001	-3.595488e+001
1290000000	-1.055000e+001	-1.129268e+002	2.310281e+001	9.203224e+001	-3.055216e+001	1.868692e+001	-1.253056e+001	-3.675692e+001
1300000000	-1.061050e+001	-1.135110e+002	2.305862e+001	9.169063e+001	-3.050341e+001	1.911288e+001	-1.257050e+001	-3.706545e+001
1310000000	-1.063506e+001	-1.141104e+002	2.301327e+001	9.118044e+001	-3.047276e+001	1.936660e+001	-1.249117e+001	-3.769893e+001
1320000000	-1.066559e+001	-1.148370e+002	2.296644e+001	9.078430e+001	-3.053361e+001	1.950968e+001	-1.247589e+001	-3.832234e+001
1330000000	-1.072471e+001	-1.151541e+002	2.291151e+001	9.033565e+001	-3.052912e+001	1.911156e+001	-1.249236e+001	-3.785183e+001
1340000000	-1.063834e+001	-1.149316e+002	2.286673e+001	8.999684e+001	-3.053303e+001	1.985950e+001	-1.237939e+001	-3.858852e+001
1350000000	-1.073265e+001	-1.158485e+002	2.281523e+001	8.950676e+001	-3.042600e+001	1.996101e+001	-1.246339e+001	-3.968039e+001
1360000000	-1.076994e+001	-1.164420e+002	2.278267e+001	8.914940e+001	-3.042170e+001	1.952828e+001	-1.243184e+001	-3.958682e+001
1370000000	-1.074513e+001	-1.170740e+002	2.273367e+001	8.871880e+001	-3.052718e+001	1.935449e+001	-1.244463e+001	-4.046160e+001
1380000000	-1.071939e+001	-1.174683e+002	2.267837e+001	8.828304e+001	-3.049988e+001	1.949334e+001	-1.239218e+001	-4.049579e+001
1390000000	-1.074369e+001	-1.178734e+002	2.264723e+001	8.793763e+001	-3.028452e+001	1.962005e+001	-1.244661e+001	-4.040686e+001
1400000000	-1.074666e+001	-1.186870e+002	2.259785e+001	8.747351e+001	-3.033086e+001	1.967731e+001	-1.250178e+001	-4.139696e+001
1410000000	-1.082431e+001	-1.186254e+002	2.255995e+001	8.708034e+001	-3.025882e+001	1.909664e+001	-1.241000e+001	-4.235741e+001
1420000000	-1.079273e+001	-1.194881e+002	2.251628e+001	8.668209e+001	-3.031660e+001	1.878116e+001	-1.250643e+001	-4.262828e+001
1430000000	-1.091049e+001	-1.198797e+002	2.245796e+001	8.619189e+001	-3.028093e+001	1.938884e+001	-1.249374e+001	-4.281171e+001
1440000000	-1.086359e+001	-1.202381e+002	2.241731e+001	8.581994e+001	-3.008696e+001	1.900699e+001	-1.240173e+001	-4.283060e+001
1450000000	-1.095211e+001	-1.208135e+002	2.238341e+001	8.543525e+001	-2.997110e+001	1.912785e+001	-1.242553e+001	-4.312812e+001
1460000000	-1.093185e+001	-1.212997e+002	2.233463e+001	8.503248e+001	-3.012408e+001	1.992674e+001	-1.240683e+001	-4.384698e+001
1470000000	-1.095723e+001	-1.213762e+002	2.228773e+001	8.472558e+001	-3.011337e+001	1.998484e+001	-1.237309e+001	-4.409255e+001
1480000000	-1.095857e+001	-1.218966e+002	2.224358e+001	8.430033e+001	-3.007470e+001	2.014633e+001	-1.234518e+001	-4.478740e+001
1490000000	-1.099998e+001	-1.221707e+002	2.219144e+001	8.392471e+001	-3.009502e+001	2.008871e+001	-1.235402e+001	-4.480142e+001
1500000000	-1.100887e+001	-1.226670e+002	2.215362e+001	8.356254e+001	-3.019338e+001	1.898693e+001	-1.245488e+001	-4.497659e+001
1510000000	-1.099953e+001	-1.233987e+002	2.210910e+001	8.315238e+001	-2.995488e+001	1.968426e+001	-1.234009e+001	-4.593974e+001
1520000000	-1.104973e+001	-1.238170e+002	2.206835e+001	8.281810e+001	-2.989253e+001	1.986870e+001	-1.233283e+001	-4.664166e+001
