!TQP3M9037
!De-embedded S-parameters 10MHz to 8.5GHz
!Vdd = +3.3V, Idd = 48mA
!LOT 6052
!Agilent Technologies,E5071C,MY46214511,A.10.06
!Date: Mon Aug 10 15:32:53 2015
!Data & Calibration Information:
!Freq	S11:SOLT2(ON)	S21:SOLT2(ON)	S12:SOLT2(ON)	S22:SOLT2(ON)
!PortZ  Port1:50+j0    Port2:50+j0
!Above PortZ is port z conversion or system Z0 setting when saving the data.
!When reading, reference impedance value at option line is always used.
# Hz S dB R 50
10000000	-6.231054e+000	-1.057344e+001	2.833861e+001	1.687834e+002	-3.385594e+001	2.276889e+001	-1.977622e+001	-1.437861e+001
20000000	-6.513696e+000	-8.198091e+000	2.789118e+001	1.730880e+002	-3.330615e+001	1.325575e+001	-1.884335e+001	3.029644e+000
30000000	-5.600959e+000	-2.238156e+001	2.779900e+001	1.766624e+002	-3.310184e+001	1.247378e+001	-1.467499e+001	-1.785180e+001
40000000	-5.884322e+000	-1.379539e+001	2.781434e+001	1.766071e+002	-3.285838e+001	1.156378e+001	-1.444894e+001	-2.380902e+001
50000000	-6.290442e+000	-1.216985e+001	2.768159e+001	1.733968e+002	-3.286441e+001	8.725849e+000	-1.346063e+001	1.805365e+001
60000000	-6.124304e+000	-1.192214e+001	2.781404e+001	1.735088e+002	-3.276074e+001	8.730521e+000	-1.526477e+001	5.442651e+000
70000000	-6.860393e+000	-1.160612e+001	2.783444e+001	1.725043e+002	-3.265827e+001	7.164922e+000	-1.447001e+001	9.131708e+000
80000000	-6.508021e+000	-1.423767e+001	2.786206e+001	1.723044e+002	-3.266973e+001	7.205512e+000	-1.471255e+001	-1.963374e+000
90000000	-6.543979e+000	-1.549733e+001	2.782653e+001	1.708472e+002	-3.267551e+001	6.459000e+000	-1.433342e+001	7.888749e+000
100000000	-7.050458e+000	-1.699505e+001	2.790100e+001	1.701496e+002	-3.238812e+001	6.136102e+000	-1.522906e+001	1.789369e+000
110000000	-6.566332e+000	-1.519641e+001	2.777031e+001	1.691965e+002	-3.277966e+001	6.950182e+000	-1.361036e+001	3.644807e+000
120000000	-6.724449e+000	-1.695072e+001	2.782577e+001	1.680989e+002	-3.266811e+001	6.362551e+000	-1.476149e+001	4.653826e+000
130000000	-6.840224e+000	-1.577251e+001	2.781686e+001	1.669218e+002	-3.240404e+001	5.861473e+000	-1.446794e+001	6.234573e+000
140000000	-6.808051e+000	-1.941049e+001	2.779502e+001	1.665767e+002	-3.255567e+001	5.430354e+000	-1.409121e+001	-9.083901e-001
150000000	-6.352694e+000	-1.952933e+001	2.770011e+001	1.656242e+002	-3.236723e+001	5.641064e+000	-1.342474e+001	2.398848e-001
160000000	-6.459283e+000	-2.205117e+001	2.773121e+001	1.650198e+002	-3.239675e+001	7.758602e+000	-1.398923e+001	-4.860191e+000
170000000	-6.496734e+000	-2.170897e+001	2.768258e+001	1.636964e+002	-3.249737e+001	6.487014e+000	-1.391658e+001	-2.754187e-001
180000000	-6.476501e+000	-2.334102e+001	2.766712e+001	1.629188e+002	-3.246888e+001	8.024705e+000	-1.370635e+001	-1.992788e+000
190000000	-6.677177e+000	-2.466056e+001	2.766803e+001	1.619574e+002	-3.245605e+001	6.922692e+000	-1.426400e+001	-3.451998e+000
200000000	-6.685628e+000	-2.591249e+001	2.764528e+001	1.609566e+002	-3.243704e+001	7.079225e+000	-1.426596e+001	-2.671284e+000
210000000	-6.850621e+000	-2.608690e+001	2.760988e+001	1.603031e+002	-3.235299e+001	6.978680e+000	-1.374674e+001	-6.818095e+000
220000000	-6.692391e+000	-2.816275e+001	2.755865e+001	1.592060e+002	-3.252933e+001	7.755197e+000	-1.380481e+001	-2.396053e+000
230000000	-6.782558e+000	-2.953847e+001	2.760059e+001	1.584883e+002	-3.234371e+001	7.957182e+000	-1.437679e+001	-7.827845e+000
240000000	-6.732468e+000	-2.941244e+001	2.751407e+001	1.573559e+002	-3.225515e+001	7.396030e+000	-1.391118e+001	-4.127700e+000
250000000	-7.014882e+000	-3.178989e+001	2.749116e+001	1.565525e+002	-3.215929e+001	8.247905e+000	-1.375802e+001	-5.264728e+000
260000000	-6.836748e+000	-3.276680e+001	2.745792e+001	1.556718e+002	-3.229513e+001	8.547311e+000	-1.374083e+001	-5.719559e+000
270000000	-6.804937e+000	-3.258461e+001	2.740434e+001	1.549972e+002	-3.233691e+001	8.576046e+000	-1.373301e+001	-8.364971e+000
280000000	-6.833503e+000	-3.386478e+001	2.736370e+001	1.541235e+002	-3.231138e+001	9.273981e+000	-1.354994e+001	-7.220713e+000
290000000	-6.849435e+000	-3.512271e+001	2.732140e+001	1.531743e+002	-3.242199e+001	7.935096e+000	-1.344718e+001	-6.388032e+000
300000000	-6.937196e+000	-3.568664e+001	2.728872e+001	1.521584e+002	-3.226605e+001	9.078984e+000	-1.394042e+001	-5.114576e+000
310000000	-7.001243e+000	-3.722002e+001	2.727406e+001	1.514234e+002	-3.212335e+001	9.171592e+000	-1.385356e+001	-7.926770e+000
320000000	-7.028032e+000	-3.846192e+001	2.723048e+001	1.505627e+002	-3.217939e+001	8.564642e+000	-1.381879e+001	-8.022782e+000
330000000	-6.964467e+000	-3.885542e+001	2.715140e+001	1.497886e+002	-3.228137e+001	9.005608e+000	-1.347736e+001	-8.018208e+000
340000000	-7.010913e+000	-4.064963e+001	2.713893e+001	1.489544e+002	-3.214564e+001	9.824620e+000	-1.377786e+001	-8.992720e+000
350000000	-6.978113e+000	-4.109215e+001	2.710257e+001	1.482328e+002	-3.220307e+001	1.004244e+001	-1.364860e+001	-9.827775e+000
360000000	-7.132914e+000	-4.271136e+001	2.704998e+001	1.473068e+002	-3.232322e+001	1.005665e+001	-1.365361e+001	-8.578382e+000
370000000	-7.114922e+000	-4.265702e+001	2.701684e+001	1.463677e+002	-3.211191e+001	1.012684e+001	-1.377150e+001	-9.431606e+000
380000000	-7.145198e+000	-4.449696e+001	2.697502e+001	1.456636e+002	-3.213321e+001	1.042491e+001	-1.369676e+001	-1.008443e+001
390000000	-7.239806e+000	-4.494397e+001	2.693111e+001	1.449922e+002	-3.208805e+001	1.039190e+001	-1.342051e+001	-1.108439e+001
400000000	-7.205581e+000	-4.591094e+001	2.688563e+001	1.441759e+002	-3.198126e+001	1.133015e+001	-1.359978e+001	-1.162479e+001
410000000	-7.161411e+000	-4.718751e+001	2.683841e+001	1.433878e+002	-3.204220e+001	1.095599e+001	-1.357949e+001	-1.202857e+001
420000000	-7.264116e+000	-4.811405e+001	2.680612e+001	1.425353e+002	-3.210628e+001	1.071658e+001	-1.381407e+001	-1.232751e+001
430000000	-7.220625e+000	-4.992998e+001	2.678284e+001	1.419827e+002	-3.188820e+001	1.117097e+001	-1.386363e+001	-1.474122e+001
440000000	-7.193899e+000	-5.090084e+001	2.673797e+001	1.411473e+002	-3.213538e+001	1.133848e+001	-1.393472e+001	-1.480522e+001
450000000	-7.143366e+000	-5.186348e+001	2.667107e+001	1.404124e+002	-3.188119e+001	1.132601e+001	-1.361305e+001	-1.421952e+001
460000000	-7.310220e+000	-5.175020e+001	2.661114e+001	1.395710e+002	-3.188584e+001	1.161545e+001	-1.359065e+001	-1.286721e+001
470000000	-7.274957e+000	-5.303189e+001	2.655842e+001	1.389151e+002	-3.212347e+001	1.147218e+001	-1.341657e+001	-1.391468e+001
480000000	-7.427834e+000	-5.417693e+001	2.653251e+001	1.379951e+002	-3.198329e+001	1.205374e+001	-1.374675e+001	-1.419949e+001
490000000	-7.255113e+000	-5.521279e+001	2.647675e+001	1.374066e+002	-3.190265e+001	1.252282e+001	-1.358419e+001	-1.504451e+001
500000000	-7.395777e+000	-5.593900e+001	2.643890e+001	1.365302e+002	-3.179817e+001	1.224174e+001	-1.378720e+001	-1.498163e+001
510000000	-7.364417e+000	-5.660851e+001	2.636283e+001	1.359384e+002	-3.183261e+001	1.154890e+001	-1.351478e+001	-1.453070e+001
520000000	-7.485010e+000	-5.773876e+001	2.633699e+001	1.351130e+002	-3.186864e+001	1.327156e+001	-1.376720e+001	-1.540629e+001
530000000	-7.411003e+000	-5.869613e+001	2.628374e+001	1.345898e+002	-3.172633e+001	1.285453e+001	-1.348072e+001	-1.652357e+001
540000000	-7.451428e+000	-5.982817e+001	2.621964e+001	1.337993e+002	-3.171737e+001	1.269241e+001	-1.355709e+001	-1.567094e+001
550000000	-7.515744e+000	-6.071628e+001	2.619314e+001	1.331060e+002	-3.179393e+001	1.348471e+001	-1.373655e+001	-1.802789e+001
560000000	-7.521194e+000	-6.171473e+001	2.614974e+001	1.324121e+002	-3.172140e+001	1.398510e+001	-1.364948e+001	-1.789550e+001
570000000	-7.651801e+000	-6.234096e+001	2.607734e+001	1.316355e+002	-3.183859e+001	1.452071e+001	-1.367372e+001	-1.699486e+001
580000000	-7.635579e+000	-6.315914e+001	2.602044e+001	1.310582e+002	-3.165749e+001	1.403708e+001	-1.357354e+001	-1.802226e+001
590000000	-7.640997e+000	-6.440940e+001	2.600203e+001	1.304134e+002	-3.176187e+001	1.441237e+001	-1.366094e+001	-1.951741e+001
600000000	-7.700433e+000	-6.479796e+001	2.593484e+001	1.296495e+002	-3.147353e+001	1.386994e+001	-1.376388e+001	-1.916878e+001
610000000	-7.715766e+000	-6.593657e+001	2.588443e+001	1.290107e+002	-3.167750e+001	1.397401e+001	-1.361877e+001	-1.889928e+001
620000000	-7.791913e+000	-6.670229e+001	2.584133e+001	1.283892e+002	-3.170223e+001	1.391115e+001	-1.370485e+001	-1.980423e+001
630000000	-7.777835e+000	-6.755815e+001	2.578824e+001	1.276619e+002	-3.159350e+001	1.527264e+001	-1.351896e+001	-2.013032e+001
640000000	-7.699219e+000	-6.867560e+001	2.573991e+001	1.270688e+002	-3.143986e+001	1.416994e+001	-1.365166e+001	-2.076379e+001
650000000	-7.790167e+000	-6.892230e+001	2.566798e+001	1.263784e+002	-3.153895e+001	1.516909e+001	-1.347926e+001	-2.044746e+001
660000000	-7.813696e+000	-6.965212e+001	2.563095e+001	1.257747e+002	-3.151093e+001	1.482635e+001	-1.352773e+001	-2.148569e+001
670000000	-7.778845e+000	-7.053499e+001	2.556062e+001	1.252028e+002	-3.148555e+001	1.469447e+001	-1.356415e+001	-2.205054e+001
680000000	-7.880197e+000	-7.143990e+001	2.552151e+001	1.245230e+002	-3.128955e+001	1.512072e+001	-1.365727e+001	-2.156924e+001
690000000	-7.866514e+000	-7.242379e+001	2.546374e+001	1.239255e+002	-3.146765e+001	1.537755e+001	-1.359566e+001	-2.284337e+001
700000000	-7.886139e+000	-7.296949e+001	2.541628e+001	1.233071e+002	-3.137748e+001	1.577693e+001	-1.362813e+001	-2.326973e+001
710000000	-7.925216e+000	-7.393470e+001	2.536750e+001	1.227473e+002	-3.133443e+001	1.673588e+001	-1.357289e+001	-2.344124e+001
720000000	-7.942375e+000	-7.508833e+001	2.532600e+001	1.220974e+002	-3.139037e+001	1.547442e+001	-1.372563e+001	-2.454015e+001
730000000	-7.938090e+000	-7.589232e+001	2.528609e+001	1.214927e+002	-3.116866e+001	1.617356e+001	-1.369161e+001	-2.541696e+001
740000000	-7.992304e+000	-7.649656e+001	2.521946e+001	1.208175e+002	-3.118249e+001	1.574570e+001	-1.379049e+001	-2.535118e+001
750000000	-8.026768e+000	-7.777073e+001	2.517622e+001	1.203264e+002	-3.130261e+001	1.626451e+001	-1.359226e+001	-2.516805e+001
760000000	-8.087823e+000	-7.820686e+001	2.511045e+001	1.196369e+002	-3.119453e+001	1.667350e+001	-1.364990e+001	-2.512597e+001
770000000	-8.157994e+000	-7.879434e+001	2.506259e+001	1.190459e+002	-3.126978e+001	1.598147e+001	-1.367554e+001	-2.602906e+001
780000000	-8.180990e+000	-7.957987e+001	2.500075e+001	1.184690e+002	-3.117401e+001	1.746566e+001	-1.354235e+001	-2.532706e+001
790000000	-8.168410e+000	-8.008524e+001	2.496119e+001	1.179433e+002	-3.086768e+001	1.631108e+001	-1.359736e+001	-2.724881e+001
800000000	-8.185283e+000	-8.079607e+001	2.491223e+001	1.174086e+002	-3.123758e+001	1.647954e+001	-1.353678e+001	-2.751385e+001
810000000	-8.244334e+000	-8.152131e+001	2.484435e+001	1.167457e+002	-3.101425e+001	1.754063e+001	-1.366449e+001	-2.751823e+001
820000000	-8.149412e+000	-8.210311e+001	2.479102e+001	1.162023e+002	-3.114322e+001	1.676713e+001	-1.352862e+001	-2.742650e+001
830000000	-8.228694e+000	-8.292477e+001	2.473618e+001	1.155462e+002	-3.116278e+001	1.712152e+001	-1.360742e+001	-2.771347e+001
840000000	-8.314649e+000	-8.419179e+001	2.469677e+001	1.149578e+002	-3.100203e+001	1.721508e+001	-1.366496e+001	-2.844859e+001
850000000	-8.302289e+000	-8.495687e+001	2.466091e+001	1.144572e+002	-3.107983e+001	1.762838e+001	-1.372453e+001	-2.951360e+001
860000000	-8.374175e+000	-8.506012e+001	2.459536e+001	1.138806e+002	-3.095233e+001	1.788922e+001	-1.362784e+001	-2.905202e+001
870000000	-8.356888e+000	-8.615795e+001	2.455921e+001	1.133772e+002	-3.088044e+001	1.786930e+001	-1.373978e+001	-3.031651e+001
880000000	-8.399411e+000	-8.630406e+001	2.449187e+001	1.128516e+002	-3.090002e+001	1.810174e+001	-1.350540e+001	-2.994182e+001
890000000	-8.499502e+000	-8.719682e+001	2.444229e+001	1.122346e+002	-3.084259e+001	1.787653e+001	-1.370665e+001	-3.065183e+001
900000000	-8.489809e+000	-8.785987e+001	2.439987e+001	1.116866e+002	-3.086780e+001	1.764938e+001	-1.364906e+001	-3.112801e+001
910000000	-8.563016e+000	-8.835677e+001	2.433697e+001	1.111245e+002	-3.080436e+001	1.841262e+001	-1.369416e+001	-3.074686e+001
920000000	-8.482067e+000	-8.916502e+001	2.429816e+001	1.106615e+002	-3.074217e+001	1.734523e+001	-1.370533e+001	-3.175514e+001
930000000	-8.544811e+000	-8.999077e+001	2.423928e+001	1.101253e+002	-3.067683e+001	1.809117e+001	-1.363322e+001	-3.234849e+001
940000000	-8.496758e+000	-9.042426e+001	2.419135e+001	1.095535e+002	-3.070594e+001	1.786817e+001	-1.359455e+001	-3.234140e+001
950000000	-8.621585e+000	-9.128144e+001	2.415409e+001	1.091172e+002	-3.077889e+001	1.832101e+001	-1.360351e+001	-3.352196e+001
960000000	-8.638123e+000	-9.203857e+001	2.408801e+001	1.086470e+002	-3.058471e+001	1.807586e+001	-1.362890e+001	-3.330320e+001
970000000	-8.625027e+000	-9.221936e+001	2.404153e+001	1.080425e+002	-3.048545e+001	1.834992e+001	-1.365304e+001	-3.393087e+001
980000000	-8.621456e+000	-9.327602e+001	2.399827e+001	1.075094e+002	-3.050342e+001	1.830126e+001	-1.375087e+001	-3.459778e+001
990000000	-8.682831e+000	-9.404567e+001	2.393751e+001	1.069629e+002	-3.059905e+001	1.798669e+001	-1.373643e+001	-3.360447e+001
1000000000	-8.682054e+000	-9.453811e+001	2.389987e+001	1.065277e+002	-3.057112e+001	1.835470e+001	-1.363114e+001	-3.463286e+001
1010000000	-8.698988e+000	-9.543049e+001	2.385411e+001	1.060912e+002	-3.047398e+001	1.868002e+001	-1.366642e+001	-3.564152e+001
1020000000	-8.885103e+000	-9.573970e+001	2.379040e+001	1.054456e+002	-3.040603e+001	1.822003e+001	-1.377127e+001	-3.559059e+001
1030000000	-8.747450e+000	-9.677095e+001	2.375506e+001	1.049984e+002	-3.061450e+001	1.944299e+001	-1.375219e+001	-3.598069e+001
1040000000	-8.800442e+000	-9.709371e+001	2.368702e+001	1.045137e+002	-3.038657e+001	1.841175e+001	-1.370622e+001	-3.582912e+001
1050000000	-8.801423e+000	-9.755770e+001	2.363255e+001	1.040892e+002	-3.035350e+001	1.914392e+001	-1.363118e+001	-3.662922e+001
1060000000	-8.854041e+000	-9.782120e+001	2.358241e+001	1.035512e+002	-3.049725e+001	1.916914e+001	-1.374714e+001	-3.706932e+001
1070000000	-8.902008e+000	-9.855768e+001	2.354318e+001	1.030294e+002	-3.037543e+001	1.837975e+001	-1.362724e+001	-3.765321e+001
1080000000	-8.898564e+000	-9.920986e+001	2.348692e+001	1.026758e+002	-3.033021e+001	1.925980e+001	-1.367597e+001	-3.740436e+001
1090000000	-8.892304e+000	-9.973038e+001	2.344289e+001	1.020858e+002	-3.029167e+001	1.959779e+001	-1.369104e+001	-3.752798e+001
1100000000	-8.981516e+000	-1.000013e+002	2.339815e+001	1.016865e+002	-3.022842e+001	2.023247e+001	-1.353996e+001	-3.853727e+001
1110000000	-8.855962e+000	-1.016976e+002	2.333976e+001	1.012024e+002	-3.020693e+001	1.897776e+001	-1.359242e+001	-3.943175e+001
1120000000	-8.999670e+000	-1.018324e+002	2.331058e+001	1.006781e+002	-3.022806e+001	1.943293e+001	-1.373207e+001	-4.011139e+001
1130000000	-9.086194e+000	-1.026111e+002	2.326783e+001	1.002070e+002	-3.023054e+001	1.841995e+001	-1.375223e+001	-3.919094e+001
1140000000	-9.006354e+000	-1.031620e+002	2.320044e+001	9.975643e+001	-3.010657e+001	1.885344e+001	-1.374210e+001	-4.037138e+001
1150000000	-9.114719e+000	-1.035997e+002	2.315324e+001	9.927649e+001	-3.014538e+001	1.980537e+001	-1.370207e+001	-4.069533e+001
1160000000	-9.100518e+000	-1.035976e+002	2.310868e+001	9.881531e+001	-3.023001e+001	1.976155e+001	-1.375489e+001	-4.143251e+001
1170000000	-9.094384e+000	-1.053189e+002	2.306965e+001	9.829740e+001	-3.002248e+001	2.037914e+001	-1.377676e+001	-4.159820e+001
1180000000	-9.129769e+000	-1.048053e+002	2.300507e+001	9.797262e+001	-3.000491e+001	1.969660e+001	-1.365446e+001	-4.175140e+001
1190000000	-9.154921e+000	-1.058255e+002	2.297565e+001	9.746690e+001	-3.003676e+001	1.841547e+001	-1.367771e+001	-4.250067e+001
1200000000	-9.184934e+000	-1.064759e+002	2.291400e+001	9.704663e+001	-2.996013e+001	1.966093e+001	-1.372879e+001	-4.204077e+001
1210000000	-9.203412e+000	-1.065057e+002	2.285830e+001	9.662499e+001	-2.988692e+001	2.019953e+001	-1.360277e+001	-4.292085e+001
1220000000	-9.217115e+000	-1.071226e+002	2.281997e+001	9.616804e+001	-2.994614e+001	1.926415e+001	-1.365538e+001	-4.332761e+001
1230000000	-9.234914e+000	-1.080052e+002	2.277926e+001	9.568495e+001	-2.993960e+001	1.984385e+001	-1.364500e+001	-4.299312e+001
1240000000	-9.263605e+000	-1.082886e+002	2.272679e+001	9.522724e+001	-2.975396e+001	1.983395e+001	-1.363890e+001	-4.393785e+001
1250000000	-9.281687e+000	-1.088138e+002	2.268119e+001	9.483302e+001	-2.983706e+001	1.978958e+001	-1.365141e+001	-4.458482e+001
1260000000	-9.299125e+000	-1.094205e+002	2.264501e+001	9.438634e+001	-2.980076e+001	1.963699e+001	-1.369895e+001	-4.496597e+001
1270000000	-9.285819e+000	-1.094941e+002	2.258535e+001	9.395816e+001	-2.986442e+001	1.955847e+001	-1.371206e+001	-4.485761e+001
1280000000	-9.307200e+000	-1.103604e+002	2.254521e+001	9.349701e+001	-2.985050e+001	2.012041e+001	-1.371019e+001	-4.529524e+001
1290000000	-9.366794e+000	-1.108588e+002	2.249707e+001	9.300159e+001	-2.970892e+001	1.946192e+001	-1.375497e+001	-4.602903e+001
1300000000	-9.411794e+000	-1.117518e+002	2.246629e+001	9.270142e+001	-2.974721e+001	1.996466e+001	-1.370255e+001	-4.612548e+001
1310000000	-9.406214e+000	-1.122397e+002	2.241275e+001	9.217571e+001	-2.963937e+001	1.960588e+001	-1.362453e+001	-4.728728e+001
1320000000	-9.450290e+000	-1.127447e+002	2.237359e+001	9.182089e+001	-2.951880e+001	1.957410e+001	-1.362666e+001	-4.775140e+001
1330000000	-9.469627e+000	-1.128689e+002	2.231378e+001	9.135337e+001	-2.964942e+001	1.967953e+001	-1.371762e+001	-4.692865e+001
1340000000	-9.449697e+000	-1.130166e+002	2.227093e+001	9.098058e+001	-2.955087e+001	2.048532e+001	-1.355863e+001	-4.803077e+001
1350000000	-9.501250e+000	-1.138889e+002	2.222669e+001	9.049564e+001	-2.946809e+001	2.056722e+001	-1.365303e+001	-4.919465e+001
1360000000	-9.560952e+000	-1.142781e+002	2.218911e+001	9.010284e+001	-2.947113e+001	2.088319e+001	-1.362529e+001	-4.900460e+001
1370000000	-9.497948e+000	-1.149891e+002	2.214376e+001	8.965743e+001	-2.946661e+001	1.969355e+001	-1.372169e+001	-4.934973e+001
1380000000	-9.575909e+000	-1.151476e+002	2.208725e+001	8.927443e+001	-2.936822e+001	1.948708e+001	-1.355135e+001	-4.970325e+001
1390000000	-9.542495e+000	-1.160119e+002	2.205885e+001	8.886515e+001	-2.943503e+001	2.051812e+001	-1.363006e+001	-5.021472e+001
1400000000	-9.570839e+000	-1.167046e+002	2.200264e+001	8.838358e+001	-2.947009e+001	1.972460e+001	-1.376508e+001	-5.092715e+001
1410000000	-9.604937e+000	-1.170350e+002	2.197137e+001	8.800246e+001	-2.940949e+001	2.045450e+001	-1.360624e+001	-5.135535e+001
1420000000	-9.579393e+000	-1.175834e+002	2.193304e+001	8.757704e+001	-2.932199e+001	2.002601e+001	-1.369740e+001	-5.160814e+001
1430000000	-9.724127e+000	-1.179000e+002	2.187870e+001	8.714532e+001	-2.922219e+001	1.949124e+001	-1.368727e+001	-5.176544e+001
1440000000	-9.693771e+000	-1.183283e+002	2.184072e+001	8.674059e+001	-2.928596e+001	2.028116e+001	-1.363109e+001	-5.159249e+001
1450000000	-9.753739e+000	-1.188417e+002	2.180575e+001	8.632107e+001	-2.919298e+001	2.038410e+001	-1.372140e+001	-5.249445e+001
1460000000	-9.688428e+000	-1.193276e+002	2.174501e+001	8.601022e+001	-2.908998e+001	1.960958e+001	-1.365812e+001	-5.275677e+001
1470000000	-9.752215e+000	-1.194391e+002	2.170529e+001	8.560517e+001	-2.925492e+001	2.023493e+001	-1.362282e+001	-5.297621e+001
1480000000	-9.796403e+000	-1.201823e+002	2.166642e+001	8.514185e+001	-2.915797e+001	1.994984e+001	-1.358890e+001	-5.399959e+001
1490000000	-9.783584e+000	-1.204312e+002	2.162297e+001	8.477969e+001	-2.901856e+001	2.034266e+001	-1.357878e+001	-5.390939e+001
1500000000	-9.788494e+000	-1.208295e+002	2.157792e+001	8.441451e+001	-2.906382e+001	1.954804e+001	-1.373242e+001	-5.484118e+001
1510000000	-9.818016e+000	-1.213469e+002	2.153485e+001	8.403005e+001	-2.907156e+001	1.984848e+001	-1.359101e+001	-5.495499e+001
1520000000	-9.823417e+000	-1.217991e+002	2.150412e+001	8.364451e+001	-2.904580e+001	2.038367e+001	-1.362970e+001	-5.584713e+001
